Time Stamp,ID,Extended,Dir,Bus,LEN,D1,D2,D3,D4,D5,D6,D7,D8
133134126,00000112,false,Rx,0,8,F9,1F,3B,0B,40,01,65,47,
133138938,00000522,false,Rx,0,6,01,03,00,04,63,5C,00,00,
133142652,0000039D,false,Rx,0,5,23,5A,01,28,00,00,00,00,
133144130,00000112,false,Rx,0,8,F9,1F,3B,0B,40,01,65,47,
133144302,000001A1,false,Rx,0,5,7C,CB,00,00,8A,00,00,00,
133147942,00000521,false,Rx,0,6,00,0A,00,00,02,DD,00,00,
133148592,00000272,false,Rx,0,8,5E,FD,71,11,FF,FF,FF,FF,
133154135,00000112,false,Rx,0,8,F9,1F,3B,0B,40,01,65,47,
133159601,00000100,false,Rx,0,8,01,00,00,00,8E,08,5C,12,
133159852,00000101,false,Rx,0,8,00,00,00,00,00,00,00,00,
133162286,00000523,false,Rx,0,6,02,04,00,04,63,6F,00,00,
133162500,00000524,false,Rx,0,6,03,04,FF,FF,FF,D3,00,00,
133164128,00000112,false,Rx,0,8,F9,1F,3B,0B,40,01,65,47,
133164310,000001A1,false,Rx,0,5,7C,CB,00,00,8A,00,00,00,
133168271,00000521,false,Rx,0,6,00,0B,00,00,02,C2,00,00,
133174138,00000112,false,Rx,0,8,F9,1F,3B,0B,40,01,65,47,
133182676,0000039D,false,Rx,0,5,24,5B,01,28,00,00,00,00,
133184134,00000112,false,Rx,0,8,F9,1F,3B,0B,40,01,65,47,
133184389,0000003C,false,Rx,0,8,FF,5F,00,00,00,00,FF,FF,
133184571,000001A1,false,Rx,0,5,7C,CB,00,00,8A,00,00,00,
133184816,000002FA,false,Rx,0,8,FD,FF,05,FF,FF,FF,FF,FF,
133185039,0000012F,false,Rx,0,8,F5,28,86,1D,F1,35,30,80,
133185285,000002F1,false,Rx,0,8,36,10,7D,00,00,00,00,A0,
133185530,0000003F,false,Rx,0,8,00,00,00,00,00,00,64,65,
133185785,000003E9,false,Rx,0,8,FE,FF,00,00,00,00,00,00,
133186008,00000431,false,Rx,0,8,CA,FF,0B,02,69,26,F3,4B,
133186245,00000432,false,Rx,0,8,2C,E2,10,A3,40,FF,02,FF,
133186489,00000510,false,Rx,0,8,40,10,20,00,00,00,00,00,
133186755,0000051A,false,Rx,0,8,00,00,00,00,50,00,00,1A,
133186979,00000540,false,Rx,0,8,00,00,00,00,FD,3C,FF,40,
133187938,00000521,false,Rx,0,6,00,0C,00,00,02,DC,00,00,
133193446,1801D08F,true,Rx,0,8,00,8C,00,6E,03,00,00,44,
133194159,00000112,false,Rx,0,8,F9,1F,3B,0B,40,01,65,47,
133198857,00000522,false,Rx,0,6,01,04,00,04,63,37,00,00,
133204166,00000112,false,Rx,0,8,F9,1F,3B,0B,40,01,65,47,
133204343,000001A1,false,Rx,0,5,7C,CB,00,00,8A,00,00,00,
133207932,00000521,false,Rx,0,6,00,0D,00,00,02,CE,00,00,
133214167,00000112,false,Rx,0,8,F9,1F,3B,0B,40,01,65,47,
133222250,00000523,false,Rx,0,6,02,05,00,04,63,90,00,00,
133222470,00000524,false,Rx,0,6,03,05,00,00,00,00,00,00,
133222683,0000039D,false,Rx,0,5,25,5C,01,28,00,00,00,00,
133222926,0000035D,false,Rx,0,8,02,00,88,08,00,00,20,F0,
133224170,00000112,false,Rx,0,8,F9,1F,3B,0B,40,01,65,47,
133224353,000001A1,false,Rx,0,5,7C,CB,00,00,8A,00,00,00,
133228267,00000521,false,Rx,0,6,00,0E,00,00,02,DC,00,00,
133234166,00000112,false,Rx,0,8,F9,1F,3B,0B,40,01,65,47,
133244171,00000112,false,Rx,0,8,F9,1F,3B,0B,40,01,65,47,
133244359,000001A1,false,Rx,0,5,7C,CB,00,00,8A,00,00,00,
133247927,00000521,false,Rx,0,6,00,0F,00,00,02,C3,00,00,
133254174,00000112,false,Rx,0,8,F9,1F,3B,0B,40,01,65,47,
133258922,00000522,false,Rx,0,6,01,05,00,04,63,5C,00,00,
133259604,00000100,false,Rx,0,8,01,00,00,00,8E,08,5C,12,
133259859,00000101,false,Rx,0,8,00,00,00,00,00,00,00,00,
133262664,0000039D,false,Rx,0,5,26,5D,01,28,00,00,00,00,
133264186,00000112,false,Rx,0,8,F9,1F,3B,0B,40,01,65,47,
133264367,000001A1,false,Rx,0,5,7C,CB,00,00,8A,00,00,00,
133267931,00000521,false,Rx,0,6,00,00,00,00,02,D4,00,00,
133274189,00000112,false,Rx,0,8,F9,1F,3B,0B,40,01,65,47,
133282264,00000523,false,Rx,0,6,02,06,00,04,63,9A,00,00,
133282483,00000524,false,Rx,0,6,03,06,FF,FF,FF,F2,00,00,
133284187,00000112,false,Rx,0,8,F9,1F,3B,0B,40,01,65,47,
133284439,0000003C,false,Rx,0,8,FF,5F,00,00,00,00,FF,FF,
133284685,0000003F,false,Rx,0,8,00,00,00,40,00,40,64,6B,
133284908,0000012F,false,Rx,0,8,F5,28,86,1D,F1,35,30,80,
133285090,000001A1,false,Rx,0,5,7C,CB,00,00,8A,00,00,00,
133285325,000002F1,false,Rx,0,8,36,10,7D,00,00,00,00,A0,
133285580,000003E9,false,Rx,0,8,FE,FF,00,00,00,00,00,00,
133285804,00000431,false,Rx,0,8,CA,FF,0B,02,69,26,F3,4B,
133288262,00000521,false,Rx,0,6,00,01,00,00,02,C0,00,00,
133293454,1801D08F,true,Rx,0,8,00,8C,00,6E,03,00,00,44,
133294199,00000112,false,Rx,0,8,F9,1F,3B,0B,40,01,65,47,
133302677,0000039D,false,Rx,0,5,27,5E,01,28,00,00,00,00,
133304198,00000112,false,Rx,0,8,F9,1F,3B,0B,40,01,65,47,
133304379,000001A1,false,Rx,0,5,7C,CB,00,00,8A,00,00,00,
133307831,00000521,false,Rx,0,6,00,02,00,00,02,D2,00,00,
133314204,00000112,false,Rx,0,8,F9,1F,3B,0B,40,01,65,47,
133318920,00000522,false,Rx,0,6,01,06,00,04,63,48,00,00,
133324208,00000112,false,Rx,0,8,F9,1F,3B,0B,40,01,65,47,
133324386,000001A1,false,Rx,0,5,7C,CB,00,00,8A,00,00,00,
133327921,00000521,false,Rx,0,6,00,03,00,00,02,CB,00,00,
133328917,000003B4,false,Rx,0,8,00,FF,B0,F4,B8,FF,00,00,
133334208,00000112,false,Rx,0,8,F9,1F,3B,0B,40,01,65,47,
133342252,00000523,false,Rx,0,6,02,07,00,04,63,71,00,00,
133342481,00000524,false,Rx,0,6,03,07,FF,FF,FF,F0,00,00,
133342662,0000039D,false,Rx,0,5,28,5F,01,28,00,00,00,00,
133344209,00000112,false,Rx,0,8,F9,1F,3B,0B,40,01,65,47,
133344391,000001A1,false,Rx,0,5,7C,CB,00,00,8A,00,00,00,
133348243,00000521,false,Rx,0,6,00,04,00,00,02,C5,00,00,
133348943,00000272,false,Rx,0,8,B9,FE,71,11,FF,FF,FF,FF,
133354214,00000112,false,Rx,0,8,F9,1F,3B,0B,40,01,65,47,
133359605,00000100,false,Rx,0,8,01,00,00,00,8E,08,5C,12,
133359857,00000101,false,Rx,0,8,00,00,00,00,00,00,00,00,
133364216,00000112,false,Rx,0,8,F9,1F,3B,0B,40,01,65,47,
133364406,000001A1,false,Rx,0,5,7C,CB,00,00,8A,00,00,00,
133367825,00000521,false,Rx,0,6,00,05,00,00,02,E9,00,00,
133374229,00000112,false,Rx,0,8,F9,1F,3B,0B,40,01,65,47,
133378905,00000522,false,Rx,0,6,01,07,00,04,63,79,00,00,
133382661,0000039D,false,Rx,0,5,19,50,01,28,00,00,00,00,
133384224,00000112,false,Rx,0,8,F9,1F,3C,0B,40,01,65,47,
133384480,0000003C,false,Rx,0,8,FF,5F,00,00,00,00,FF,FF,
133384661,000001A1,false,Rx,0,5,7C,CB,00,00,8A,00,00,00,
133384905,000002FA,false,Rx,0,8,FD,FF,05,FF,FF,FF,FF,FF,
133385130,0000012F,false,Rx,0,8,F5,28,86,1D,F1,35,30,80,
133385375,000002F1,false,Rx,0,8,36,10,7D,00,00,00,00,A0,
133385620,0000003F,false,Rx,0,8,00,00,00,80,00,80,64,CE,
133385865,000003E9,false,Rx,0,8,FE,FF,00,00,00,00,00,00,
133386099,00000431,false,Rx,0,8,CA,FF,0B,02,69,26,F3,4B,
133386334,00000432,false,Rx,0,8,2C,E2,10,A3,40,FF,02,FF,
133386579,00000510,false,Rx,0,8,40,10,20,00,00,00,00,00,
133386825,0000051A,false,Rx,0,8,00,00,00,00,50,00,00,1A,
133387069,00000540,false,Rx,0,8,00,00,00,00,FD,3C,FF,40,
133387828,00000521,false,Rx,0,6,00,06,00,00,02,D2,00,00,
133393463,1801D08F,true,Rx,0,8,00,8C,00,6E,03,00,00,44,
133394250,00000112,false,Rx,0,8,F9,1F,3C,0B,40,01,65,47,
133402243,00000523,false,Rx,0,6,02,08,00,04,63,7F,00,00,
133402462,00000524,false,Rx,0,6,03,08,00,00,00,08,00,00,
133404249,00000112,false,Rx,0,8,F9,1F,3C,0B,40,01,65,47,
133404430,000001A1,false,Rx,0,5,7C,CB,00,00,8A,00,00,00,
133408230,00000521,false,Rx,0,6,00,07,00,00,02,BA,00,00,
133414253,00000112,false,Rx,0,8,FA,1F,3C,0B,40,01,65,47,
133422664,0000039D,false,Rx,0,5,1A,51,01,28,00,00,00,00,
133424260,00000112,false,Rx,0,8,FA,1F,3C,0B,40,01,65,47,
133424442,000001A1,false,Rx,0,5,7C,CB,00,00,8A,00,00,00,
133427817,00000521,false,Rx,0,6,00,08,00,00,02,BC,00,00,
133434257,00000112,false,Rx,0,8,F9,1F,3C,0B,40,01,65,47,
133438814,00000522,false,Rx,0,6,01,08,00,04,63,3F,00,00,
133444260,00000112,false,Rx,0,8,F9,1F,3B,0B,40,01,65,47,
133444448,000001A1,false,Rx,0,5,7C,CB,00,00,8A,00,00,00,
133447888,00000521,false,Rx,0,6,00,09,00,00,02,BD,00,00,
133454272,00000112,false,Rx,0,8,F9,1F,3B,0B,40,01,65,47,
133459612,00000100,false,Rx,0,8,01,00,00,00,8E,08,5C,12,
133459862,00000101,false,Rx,0,8,00,00,00,00,00,00,00,00,
133462235,00000523,false,Rx,0,6,02,09,00,04,63,73,00,00,
133462448,00000524,false,Rx,0,6,03,09,00,00,00,0E,00,00,
133462682,0000039D,false,Rx,0,5,1B,52,01,28,00,00,00,00,
133464270,00000112,false,Rx,0,8,F9,1F,3B,0B,40,01,65,47,
133464452,000001A1,false,Rx,0,5,7C,CB,00,00,8A,00,00,00,
133468214,00000521,false,Rx,0,6,00,0A,00,00,02,D4,00,00,
133474272,00000112,false,Rx,0,8,F9,1F,3B,0B,40,01,65,47,
133484280,00000112,false,Rx,0,8,F9,1F,3B,0B,40,01,65,47,
133484520,0000003C,false,Rx,0,8,FF,5F,00,00,00,00,FF,FF,
133484765,0000003F,false,Rx,0,8,00,00,00,C0,00,C0,64,C0,
133485000,0000012F,false,Rx,0,8,F5,28,86,1D,F1,35,30,80,
133485172,000001A1,false,Rx,0,5,7C,CB,00,00,8A,00,00,00,
133485416,000002F1,false,Rx,0,8,36,10,7D,00,00,00,00,A0,
133485671,000003E9,false,Rx,0,8,FE,FF,00,00,00,00,00,00,
133485895,00000431,false,Rx,0,8,CA,FF,0B,02,69,26,F3,4B,
133487807,00000521,false,Rx,0,6,00,0B,00,00,02,D2,00,00,
133493460,1801D08F,true,Rx,0,8,00,8C,00,6D,03,00,00,44,
133494289,00000112,false,Rx,0,8,F9,1F,3B,0B,40,01,65,47,
133498872,00000522,false,Rx,0,6,01,09,00,04,63,48,00,00,
133502640,0000039D,false,Rx,0,5,1C,53,01,28,00,00,00,00,
133504286,00000112,false,Rx,0,8,F9,1F,3B,0B,40,01,65,47,
133504468,000001A1,false,Rx,0,5,7C,CB,00,00,8A,00,00,00,
133507875,00000521,false,Rx,0,6,00,0C,00,00,02,BA,00,00,
133514292,00000112,false,Rx,0,8,FA,1F,3B,0B,40,01,65,47,
133522206,00000523,false,Rx,0,6,02,0A,00,04,63,8B,00,00,
133522425,00000524,false,Rx,0,6,03,0A,00,00,00,00,00,00,
133524293,00000112,false,Rx,0,8,FA,1F,3B,0B,40,01,65,47,
133524475,000001A1,false,Rx,0,5,7C,CB,00,00,8A,00,00,00,
133528213,00000521,false,Rx,0,6,00,0D,00,00,02,D0,00,00,
133529261,000003B4,false,Rx,0,8,00,FF,B0,F4,B8,FF,00,00,
133534300,00000112,false,Rx,0,8,F9,1F,3B,0B,40,01,65,47,
133542628,0000039D,false,Rx,0,5,1D,54,01,28,00,00,00,00,
133544306,00000112,false,Rx,0,8,F9,1F,3B,0B,40,01,65,47,
133544487,000001A1,false,Rx,0,5,7C,CB,00,00,8A,00,00,00,
133547789,00000521,false,Rx,0,6,00,0E,00,00,02,B0,00,00,
133549290,00000272,false,Rx,0,8,B8,F0,71,11,FF,FF,FF,FF,
133552737,0000035D,false,Rx,0,8,00,00,00,00,00,00,00,00,
133554302,00000112,false,Rx,0,8,FA,1F,3B,0B,40,01,65,47,
133558794,00000522,false,Rx,0,6,01,0A,00,04,63,5C,00,00,
133559602,00000100,false,Rx,0,8,01,00,00,00,8E,08,5C,12,
133559857,00000101,false,Rx,0,8,00,00,00,00,00,00,00,00,
133564308,00000112,false,Rx,0,8,FA,1F,3B,0B,40,01,65,47,
133564486,000001A1,false,Rx,0,5,7C,CB,00,00,8A,00,00,00,
133567875,00000521,false,Rx,0,6,00,0F,00,00,02,DF,00,00,
133574309,00000112,false,Rx,0,8,F9,1F,3B,0B,40,01,65,47,
133582203,00000523,false,Rx,0,6,02,0B,00,04,63,89,00,00,
133582422,00000524,false,Rx,0,6,03,0B,00,00,00,27,00,00,
133582699,0000039D,false,Rx,0,5,1E,55,01,28,00,00,00,00,
133584316,00000112,false,Rx,0,8,F9,1F,3B,0B,40,01,65,47,
133584560,0000003C,false,Rx,0,8,FF,5F,00,00,00,00,FF,FF,
133584742,000001A1,false,Rx,0,5,7C,CB,00,00,8A,00,00,00,
133584997,000002FA,false,Rx,0,8,FD,FF,05,FF,FF,FF,FF,FF,
133585222,0000012F,false,Rx,0,8,F5,28,86,1D,F1,35,30,80,
133585466,000002F1,false,Rx,0,8,36,10,7D,00,00,00,00,A0,
133585712,0000003F,false,Rx,0,8,00,00,00,00,00,00,64,65,
133585956,000003E9,false,Rx,0,8,FE,FF,00,00,00,00,00,00,
133586182,00000431,false,Rx,0,8,CA,FF,0B,02,69,26,F3,4B,
133586419,00000432,false,Rx,0,8,2C,E2,10,A3,40,FF,02,FF,
133586663,00000510,false,Rx,0,8,40,10,20,00,00,00,00,00,
133586908,0000051A,false,Rx,0,8,00,00,00,00,50,00,00,1A,
133587156,00000540,false,Rx,0,8,00,00,00,00,FD,3C,FF,40,
133588198,00000521,false,Rx,0,6,00,00,00,00,02,DF,00,00,
133593473,1801D08F,true,Rx,0,8,00,8C,00,6D,03,00,00,44,
133594333,00000112,false,Rx,0,8,F9,1F,3B,0B,40,01,65,47,
133604335,00000112,false,Rx,0,8,F9,1F,3B,0B,40,01,65,47,
133604523,000001A1,false,Rx,0,5,7C,CB,00,00,8A,00,00,00,
133607785,00000521,false,Rx,0,6,00,01,00,00,02,E6,00,00,
133612804,000005BD,false,Rx,0,8,B4,80,00,00,00,00,00,00,
133614347,00000112,false,Rx,0,8,F9,1F,3B,0B,40,01,65,47,
133618873,00000522,false,Rx,0,6,01,0B,00,04,63,4C,00,00,
133622661,0000039D,false,Rx,0,5,1F,56,01,28,00,00,00,00,
133624339,00000112,false,Rx,0,8,F9,1F,3B,0B,40,01,65,47,
133624521,000001A1,false,Rx,0,5,7C,CB,00,00,8A,00,00,00,
133627782,00000521,false,Rx,0,6,00,02,00,00,02,E1,00,00,
133634346,00000112,false,Rx,0,8,F9,1F,3B,0B,40,01,65,47,
133642208,00000523,false,Rx,0,6,02,0C,00,04,63,71,00,00,
133642428,00000524,false,Rx,0,6,03,0C,FF,FF,FF,F6,00,00,
133644347,00000112,false,Rx,0,8,F9,1F,3B,0B,40,01,65,47,
133644528,000001A1,false,Rx,0,5,7C,CB,00,00,8A,00,00,00,
133648203,00000521,false,Rx,0,6,00,03,00,00,02,CC,00,00,
133654356,00000112,false,Rx,0,8,F9,1F,3B,0B,40,01,65,47,
133659601,00000100,false,Rx,0,8,01,00,00,00,8E,08,5C,12,
133659852,00000101,false,Rx,0,8,00,00,00,00,00,00,00,00,
133662675,0000039D,false,Rx,0,5,20,57,01,28,00,00,00,00,
133664355,00000112,false,Rx,0,8,F9,1F,3B,0B,40,01,65,47,
133664536,000001A1,false,Rx,0,5,7C,CB,00,00,8A,00,00,00,
133667855,00000521,false,Rx,0,6,00,04,00,00,02,C7,00,00,
133674366,00000112,false,Rx,0,8,F9,1F,3B,0B,40,01,65,47,
133678850,00000522,false,Rx,0,6,01,0C,00,04,63,81,00,00,
133684368,00000112,false,Rx,0,8,F9,1F,3C,0B,40,01,65,47,
133684620,0000003C,false,Rx,0,8,FF,5F,00,00,00,00,FF,FF,
133684864,0000003F,false,Rx,0,8,00,00,00,40,00,40,64,6B,
133685087,0000012F,false,Rx,0,8,F5,28,86,1D,F1,35,30,80,
133685270,000001A1,false,Rx,0,5,7C,CB,00,00,8A,00,00,00,
133685505,000002F1,false,Rx,0,8,36,10,7D,00,00,00,00,A0,
133685760,000003E9,false,Rx,0,8,FE,FF,00,00,00,00,00,00,
133685983,00000431,false,Rx,0,8,CA,FF,0B,02,69,26,F3,4B,
133687853,00000521,false,Rx,0,6,00,05,00,00,02,CE,00,00,
133693454,1801D08F,true,Rx,0,8,00,8C,00,6D,03,00,00,44,
133694377,00000112,false,Rx,0,8,F9,1F,3C,0B,40,01,65,47,
133702179,00000523,false,Rx,0,6,02,0D,00,04,63,77,00,00,
133702399,00000524,false,Rx,0,6,03,0D,FF,FF,FF,EE,00,00,
133702612,0000039D,false,Rx,0,5,21,58,01,28,00,00,00,00,
133704376,00000112,false,Rx,0,8,F9,1F,3C,0B,40,01,65,47,
133704569,000001A1,false,Rx,0,5,7C,CB,00,00,8A,00,00,00,
133708190,00000521,false,Rx,0,6,00,06,00,00,02,CC,00,00,
133714385,00000112,false,Rx,0,8,F9,1F,3C,0B,40,01,65,47,
133724391,00000112,false,Rx,0,8,F9,1F,3C,0B,40,01,65,47,
133724569,000001A1,false,Rx,0,5,7C,CB,00,00,8A,00,00,00,
133727759,00000521,false,Rx,0,6,00,07,00,00,02,E4,00,00,
133728461,00000351,false,Rx,0,8,20,0D,32,00,52,03,80,0A,
133728706,00000355,false,Rx,0,8,20,00,64,00,40,01,00,00,
133728950,00000356,false,Rx,0,8,5E,70,07,00,CE,00,00,00,
133729500,00000337,false,Rx,0,2,FF,FF,00,00,00,00,00,00,
133729785,000003B4,false,Rx,0,8,00,FF,B0,F4,B8,FF,00,00,
133730812,0000035A,false,Rx,0,8,00,00,00,00,00,00,00,00,
133731046,0000035E,false,Rx,0,8,53,49,4D,50,20,42,4D,53,
133732800,00000370,false,Rx,0,8,53,49,4D,50,20,45,43,4F,
133734389,00000112,false,Rx,0,8,F9,1F,3C,0B,40,01,65,47,
133734821,00000373,false,Rx,0,8,2A,0D,6E,0D,24,01,26,01,
133736836,00000379,false,Rx,0,8,D2,00,00,00,01,00,00,00,
133738841,00000372,false,Rx,0,8,0E,00,00,00,00,00,00,00,
133739043,00000522,false,Rx,0,6,01,0D,00,04,63,7F,00,00,
133742615,0000039D,false,Rx,0,5,22,59,01,28,00,00,00,00,
133744388,00000112,false,Rx,0,8,F9,1F,3C,0B,40,01,65,47,
133744571,000001A1,false,Rx,0,5,7C,CB,00,00,8A,00,00,00,
133747842,00000521,false,Rx,0,6,00,08,00,00,02,C3,00,00,
133749635,00000272,false,Rx,0,8,E5,F1,71,11,FF,FF,FF,FF,
133754393,00000112,false,Rx,0,8,F9,1F,3C,0B,40,01,65,47,
133759596,00000100,false,Rx,0,8,01,00,00,00,8E,08,5C,12,
133759847,00000101,false,Rx,0,8,00,00,00,00,00,00,00,00,
133762179,00000523,false,Rx,0,6,02,0E,00,04,63,60,00,00,
133762402,00000524,false,Rx,0,6,03,0E,FF,FF,FF,EA,00,00,
133764396,00000112,false,Rx,0,8,F9,1F,3C,0B,40,01,65,47,
133764579,000001A1,false,Rx,0,5,7C,CB,00,00,8A,00,00,00,
133768173,00000521,false,Rx,0,6,00,09,00,00,02,DF,00,00,
133774409,00000112,false,Rx,0,8,F9,1F,3C,0B,40,01,65,47,
133782683,0000039D,false,Rx,0,5,23,5A,01,28,00,00,00,00,
133784403,00000112,false,Rx,0,8,F9,1F,3C,0B,40,01,65,47,
133784659,0000003C,false,Rx,0,8,FF,5F,00,00,00,00,FF,FF,
133784839,000001A1,false,Rx,0,5,7C,CB,00,00,8A,00,00,00,
133785082,000002FA,false,Rx,0,8,FD,FF,05,FF,FF,FF,FF,FF,
133785308,0000012F,false,Rx,0,8,F5,28,86,1D,F1,35,30,80,
133785553,000002F1,false,Rx,0,8,36,10,7D,00,00,00,00,A0,
133785797,0000003F,false,Rx,0,8,00,00,00,80,00,80,64,CE,
133786043,000003E9,false,Rx,0,8,FE,FF,00,00,00,00,00,00,
133786278,00000431,false,Rx,0,8,CA,FF,0B,02,69,26,F3,4B,
133786511,00000432,false,Rx,0,8,2C,E2,10,A3,40,FF,02,FF,
133786757,00000510,false,Rx,0,8,40,10,20,00,00,00,00,00,
133787002,0000051A,false,Rx,0,8,00,00,00,00,50,00,00,1A,
133787247,00000540,false,Rx,0,8,00,00,00,00,FD,3C,FF,40,
133787827,00000521,false,Rx,0,6,00,0A,00,00,02,C4,00,00,
133793453,1801D08F,true,Rx,0,8,00,8C,00,6E,03,00,00,44,
133794429,00000112,false,Rx,0,8,F9,1F,3C,0B,40,01,65,47,
133798822,00000522,false,Rx,0,6,01,0E,00,04,63,4C,00,00,
133804426,00000112,false,Rx,0,8,F9,1F,3B,0B,40,01,65,47,
133804604,000001A1,false,Rx,0,5,7C,CB,00,00,8A,00,00,00,
133807824,00000521,false,Rx,0,6,00,0B,00,00,02,CE,00,00,
133814428,00000112,false,Rx,0,8,F9,1F,3B,0B,40,01,65,47,
133822153,00000523,false,Rx,0,6,02,0F,00,04,63,79,00,00,
133822371,00000524,false,Rx,0,6,03,0F,00,00,00,1E,00,00,
133822668,0000039D,false,Rx,0,5,24,5B,01,28,00,00,00,00,
133824433,00000112,false,Rx,0,8,F9,1F,3B,0B,40,01,65,47,
133824615,000001A1,false,Rx,0,5,7C,CB,00,00,8A,00,00,00,
133828163,00000521,false,Rx,0,6,00,0C,00,00,02,BC,00,00,
133834441,00000112,false,Rx,0,8,F9,1F,3B,0B,40,01,65,47,
133844436,00000112,false,Rx,0,8,F9,1F,3B,0B,40,01,65,47,
133844624,000001A1,false,Rx,0,5,7C,CB,00,00,8A,00,00,00,
133847741,00000521,false,Rx,0,6,00,0D,00,00,02,B4,00,00,
133854438,00000112,false,Rx,0,8,FA,1F,3B,0B,40,01,65,47,
133858817,00000522,false,Rx,0,6,01,0F,00,04,63,98,00,00,
133859593,00000100,false,Rx,0,8,01,00,00,00,8E,08,5C,12,
133859849,00000101,false,Rx,0,8,00,00,00,00,00,00,00,00,
133862621,0000039D,false,Rx,0,5,25,5C,01,28,00,00,00,00,
133864447,00000112,false,Rx,0,8,FA,1F,3C,0B,40,01,65,47,
133864628,000001A1,false,Rx,0,5,7C,CB,00,00,8A,00,00,00,
133867825,00000521,false,Rx,0,6,00,0E,00,00,02,CA,00,00,
133874457,00000112,false,Rx,0,8,F9,1F,3C,0B,40,01,65,47,
133882162,00000523,false,Rx,0,6,02,00,00,04,63,83,00,00,
133882391,00000524,false,Rx,0,6,03,00,00,00,00,12,00,00,
133882708,0000035D,false,Rx,0,8,01,00,00,00,00,00,00,00,
133884454,00000112,false,Rx,0,8,F9,1F,3C,0B,40,01,65,47,
133884709,0000003C,false,Rx,0,8,FF,5F,00,00,00,00,FF,FF,
133884953,0000003F,false,Rx,0,8,00,00,00,C0,00,C0,64,C0,
133885179,0000012F,false,Rx,0,8,F5,28,86,1D,F1,35,30,80,
133885360,000001A1,false,Rx,0,5,7C,CB,00,00,8A,00,00,00,
133885594,000002F1,false,Rx,0,8,36,10,7D,00,00,00,00,A0,
133885850,000003E9,false,Rx,0,8,FE,FF,00,00,00,00,00,00,
133886073,00000431,false,Rx,0,8,CA,FF,0B,02,69,26,F3,4B,
133888156,00000521,false,Rx,0,6,00,0F,00,00,02,D2,00,00,
133893451,1801D08F,true,Rx,0,8,00,8C,00,6D,03,00,00,44,
133894471,00000112,false,Rx,0,8,F9,1F,3C,0B,40,01,65,47,
133902622,0000039D,false,Rx,0,5,26,5D,01,28,00,00,00,00,
133904469,00000112,false,Rx,0,8,F9,1F,3C,0B,40,01,65,47,
133904650,000001A1,false,Rx,0,5,7C,CB,00,00,8A,00,00,00,
133907743,00000521,false,Rx,0,6,00,00,00,00,02,CA,00,00,
133914476,00000112,false,Rx,0,8,F9,1F,3C,0B,40,01,65,47,
133918822,00000522,false,Rx,0,6,01,00,00,04,63,60,00,00,
133924479,00000112,false,Rx,0,8,F9,1F,3B,0B,40,01,65,47,
133924656,000001A1,false,Rx,0,5,7C,CB,00,00,8A,00,00,00,
133927814,00000521,false,Rx,0,6,00,01,00,00,02,CE,00,00,
133929954,000003B4,false,Rx,0,8,00,FF,B0,F4,B8,FF,00,00,
133934478,00000112,false,Rx,0,8,F9,1F,3B,0B,40,01,65,47,
133942151,00000523,false,Rx,0,6,02,01,00,04,63,87,00,00,
133942370,00000524,false,Rx,0,6,03,01,FF,FF,FF,E4,00,00,
133942646,0000039D,false,Rx,0,5,27,5E,01,28,00,00,00,00,
133944484,00000112,false,Rx,0,8,F9,1F,3B,0B,40,01,65,47,
133944666,000001A1,false,Rx,0,5,7C,CB,00,00,8A,00,00,00,
133948142,00000521,false,Rx,0,6,00,02,00,00,02,D6,00,00,
133949976,00000272,false,Rx,0,8,02,F2,71,11,FF,FF,FF,FF,
133954483,00000112,false,Rx,0,8,F9,1F,3B,0B,40,01,65,47,
133959591,00000100,false,Rx,0,8,01,00,00,00,8E,08,5C,12,
133959842,00000101,false,Rx,0,8,00,00,00,00,00,00,00,00,
133964485,00000112,false,Rx,0,8,F9,1F,3B,0B,40,01,65,47,
133964673,000001A1,false,Rx,0,5,7C,CB,00,00,8A,00,00,00,
133967727,00000521,false,Rx,0,6,00,03,00,00,02,CA,00,00,
133974489,00000112,false,Rx,0,8,F9,1F,3B,0B,40,01,65,47,
133978804,00000522,false,Rx,0,6,01,01,00,04,63,68,00,00,
133982676,0000039D,false,Rx,0,5,28,5F,01,28,00,00,00,00,
133984491,00000112,false,Rx,0,8,F9,1F,3B,0B,40,01,65,47,
133984672,000001A1,false,Rx,0,5,7C,CB,00,00,8A,00,00,00,
133984925,000002FA,false,Rx,0,8,FD,FF,05,FF,FF,FF,FF,FF,
133985128,00000328,false,Rx,0,6,D2,00,00,00,87,1E,00,00,
133985373,0000003C,false,Rx,0,8,FF,5F,00,00,00,00,FF,FF,
133985513,000003E8,false,Rx,0,2,F1,FF,00,00,00,00,00,00,
133985757,000003E9,false,Rx,0,8,FE,FF,00,00,00,00,00,00,
133985981,0000012F,false,Rx,0,8,F5,28,86,1D,F1,35,30,80,
133986226,000002F1,false,Rx,0,8,36,10,7D,00,00,00,00,A0,
133986472,0000003F,false,Rx,0,8,00,00,00,00,00,00,64,65,
133986706,000003F9,false,Rx,0,8,C0,F9,80,E0,43,3C,F3,FF,
133986941,00000431,false,Rx,0,8,CA,FF,0B,02,69,26,F3,4B,
133987166,00000432,false,Rx,0,8,2C,E2,10,A3,40,FF,02,FF,
133987422,00000510,false,Rx,0,8,40,10,20,00,00,00,00,00,
133987666,0000051A,false,Rx,0,8,00,00,00,00,50,00,00,1A,
133987869,00000521,false,Rx,0,6,00,04,00,00,02,B8,00,00,
133988114,00000540,false,Rx,0,8,00,00,00,00,FD,3C,FF,40,
133993430,1801D08F,true,Rx,0,8,00,8C,00,6E,03,00,00,44,
133994521,00000112,false,Rx,0,8,FA,1F,3B,0B,40,01,65,47,
134002136,00000523,false,Rx,0,6,02,02,00,04,63,A4,00,00,
134002355,00000524,false,Rx,0,6,03,02,00,00,00,04,00,00,
134004516,00000112,false,Rx,0,8,FA,1F,3B,0B,40,01,65,47,
134004698,000001A1,false,Rx,0,5,7C,CB,00,00,8A,00,00,00,
134008121,00000521,false,Rx,0,6,00,05,00,00,02,DA,00,00,
134014526,00000112,false,Rx,0,8,F9,1F,3B,0B,40,01,65,47,
134022652,0000039D,false,Rx,0,5,19,50,01,28,00,00,00,00,
134024529,00000112,false,Rx,0,8,F9,1F,3B,0B,40,01,65,47,
134024706,000001A1,false,Rx,0,5,7C,CB,00,00,8A,00,00,00,
134027790,00000521,false,Rx,0,6,00,06,00,00,02,DD,00,00,
134034529,00000112,false,Rx,0,8,F9,1F,3B,0B,40,01,65,47,
134038792,00000522,false,Rx,0,6,01,02,00,04,63,6D,00,00,
134044532,00000112,false,Rx,0,8,F9,1F,3B,0B,40,01,65,47,
134044709,000001A1,false,Rx,0,5,7C,CB,00,00,8A,00,00,00,
134047710,00000521,false,Rx,0,6,00,07,00,00,02,D6,00,00,
134054533,00000112,false,Rx,0,8,F9,1F,3B,0B,40,01,65,47,
134059559,00000100,false,Rx,0,8,01,00,00,00,8E,08,5C,12,
134059810,00000101,false,Rx,0,8,00,00,00,00,00,00,00,00,
134062130,00000523,false,Rx,0,6,02,03,00,04,63,8B,00,00,
134062354,00000524,false,Rx,0,6,03,03,FF,FF,FF,F6,00,00,
134062599,0000039D,false,Rx,0,5,1A,51,01,28,00,00,00,00,
134064543,00000112,false,Rx,0,8,F9,1F,3B,0B,40,01,65,47,
134064724,000001A1,false,Rx,0,5,7C,CB,00,00,8A,00,00,00,
134068119,00000521,false,Rx,0,6,00,08,00,00,02,DA,00,00,
134074546,00000112,false,Rx,0,8,F9,1F,3B,0B,40,01,65,47,
134084551,00000112,false,Rx,0,8,F9,1F,3B,0B,40,01,65,47,
134084792,0000003C,false,Rx,0,8,FF,5F,00,00,00,00,FF,FF,
134085036,0000003F,false,Rx,0,8,00,00,00,40,00,40,64,6B,
134085261,0000012F,false,Rx,0,8,F5,28,86,1D,F1,35,30,80,
134085443,000001A1,false,Rx,0,5,7C,CB,00,00,8A,00,00,00,
134085688,000002F1,false,Rx,0,8,36,10,7D,00,00,00,00,A0,
134085942,000003E9,false,Rx,0,8,FE,FF,00,00,00,00,00,00,
134086167,00000431,false,Rx,0,8,CA,FF,0B,02,69,26,F3,4B,
134087784,00000521,false,Rx,0,6,00,09,00,00,02,BF,00,00,
134093436,1801D08F,true,Rx,0,8,00,8C,00,6E,03,00,00,44,
134094557,00000112,false,Rx,0,8,F9,1F,3B,0B,40,01,65,47,
134098701,00000522,false,Rx,0,6,01,03,00,04,63,87,00,00,
134102593,0000039D,false,Rx,0,5,1B,52,01,28,00,00,00,00,
134104565,00000112,false,Rx,0,8,F9,1F,3C,0B,40,01,65,47,
134104743,000001A1,false,Rx,0,5,7C,CB,00,00,8A,00,00,00,
134107786,00000521,false,Rx,0,6,00,0A,00,00,02,C4,00,00,
134114565,00000112,false,Rx,0,8,F9,1F,3C,0B,40,01,65,47,
134122121,00000523,false,Rx,0,6,02,04,00,04,63,66,00,00,
134122341,00000524,false,Rx,0,6,03,04,00,00,00,18,00,00,
134124565,00000112,false,Rx,0,8,F9,1F,3C,0B,40,01,65,47,
134124748,000001A1,false,Rx,0,5,7C,CB,00,00,8A,00,00,00,
134128108,00000521,false,Rx,0,6,00,0B,00,00,02,ED,00,00,
134130303,000003B4,false,Rx,0,8,00,FF,B0,F4,B8,FF,00,00,
134134576,00000112,false,Rx,0,8,F9,1F,3C,0B,40,01,65,47,
134142639,0000039D,false,Rx,0,5,1C,53,01,28,00,00,00,00,
134144580,00000112,false,Rx,0,8,F9,1F,3C,0B,40,01,65,47,
134144758,000001A1,false,Rx,0,5,7C,CB,00,00,8A,00,00,00,
134147697,00000521,false,Rx,0,6,00,0C,00,00,02,C9,00,00,
134150330,00000272,false,Rx,0,8,5F,F3,71,11,FF,FF,FF,FF,
134154579,00000112,false,Rx,0,8,F9,1F,3C,0B,40,01,65,47,
134158768,00000522,false,Rx,0,6,01,04,00,04,63,5A,00,00,
134159555,00000100,false,Rx,0,8,01,00,00,00,8E,08,5C,12,
134159799,00000101,false,Rx,0,8,00,00,00,00,00,00,00,00,
134164576,00000112,false,Rx,0,8,F9,1F,3B,0B,40,01,65,47,
134164765,000001A1,false,Rx,0,5,7C,CB,00,00,8A,00,00,00,
134167766,00000521,false,Rx,0,6,00,0D,00,00,02,D3,00,00,
134174589,00000112,false,Rx,0,8,F9,1F,3B,0B,40,01,65,47,
134182123,00000523,false,Rx,0,6,02,05,00,04,63,94,00,00,
134182344,00000524,false,Rx,0,6,03,05,FF,FF,FF,DE,00,00,
134182682,0000039D,false,Rx,0,5,1D,54,01,28,00,00,00,00,
134184583,00000112,false,Rx,0,8,F9,1F,3B,0B,40,01,65,47,
134184838,0000003C,false,Rx,0,8,FF,5F,00,00,00,00,FF,FF,
134185020,000001A1,false,Rx,0,5,7C,CB,00,00,8A,00,00,00,
134185266,000002FA,false,Rx,0,8,FD,FF,05,FF,FF,FF,FF,FF,
134185490,0000012F,false,Rx,0,8,F5,28,86,1D,F1,35,30,80,
134185735,000002F1,false,Rx,0,8,36,10,7D,00,00,00,00,A0,
134185979,0000003F,false,Rx,0,8,00,00,00,80,00,80,64,CE,
134186224,000003E9,false,Rx,0,8,FE,FF,00,00,00,00,00,00,
134186458,00000431,false,Rx,0,8,CA,FF,0B,02,69,26,F3,4B,
134186692,00000432,false,Rx,0,8,2C,E2,10,A3,40,FF,02,FF,
134186937,00000510,false,Rx,0,8,40,10,20,00,00,00,00,00,
134187183,0000051A,false,Rx,0,8,00,00,00,00,50,00,00,1A,
134187427,00000540,false,Rx,0,8,00,00,00,00,FD,3C,FF,40,
134188112,00000521,false,Rx,0,6,00,0E,00,00,02,C6,00,00,
134193433,1801D08F,true,Rx,0,8,00,8C,00,6D,03,00,00,44,
134194608,00000112,false,Rx,0,8,F9,1F,3B,0B,40,01,65,47,
134204610,00000112,false,Rx,0,8,F9,1F,3B,0B,40,01,65,47,
134204788,000001A1,false,Rx,0,5,7C,CB,00,00,8A,00,00,00,
134207683,00000521,false,Rx,0,6,00,0F,00,00,02,D2,00,00,
134212720,0000035D,false,Rx,0,8,02,00,88,08,00,00,20,F0,
134214610,00000112,false,Rx,0,8,F9,1F,3B,0B,40,01,65,47,
134218767,00000522,false,Rx,0,6,01,05,00,04,63,89,00,00,
134222608,0000039D,false,Rx,0,5,1E,55,01,28,00,00,00,00,
134224612,00000112,false,Rx,0,8,F9,1F,3C,0B,40,01,65,47,
134224800,000001A1,false,Rx,0,5,7C,CB,00,00,8A,00,00,00,
134227770,00000521,false,Rx,0,6,00,00,00,00,02,D0,00,00,
134234624,00000112,false,Rx,0,8,F9,1F,3C,0B,40,01,65,47,
134242094,00000523,false,Rx,0,6,02,06,00,04,63,7B,00,00,
134242326,00000524,false,Rx,0,6,03,06,00,00,00,22,00,00,
134244623,00000112,false,Rx,0,8,F9,1F,3C,0B,40,01,65,47,
134244804,000001A1,false,Rx,0,5,7C,CB,00,00,8A,00,00,00,
134248090,00000521,false,Rx,0,6,00,01,00,00,02,D9,00,00,
134254623,00000112,false,Rx,0,8,F9,1F,3C,0B,40,01,65,47,
134259551,00000100,false,Rx,0,8,01,00,00,00,8E,08,5C,12,
134259801,00000101,false,Rx,0,8,00,00,00,00,00,00,00,00,
134262605,0000039D,false,Rx,0,5,1F,56,01,28,00,00,00,00,
134262838,0000032D,false,Rx,0,8,16,00,00,00,8A,8D,C6,17,
134264625,00000112,false,Rx,0,8,F9,1F,3C,0B,40,01,65,47,
134264807,000001A1,false,Rx,0,5,7C,CB,00,00,8A,00,00,00,
134267758,00000521,false,Rx,0,6,00,02,00,00,02,E3,00,00,
134274628,00000112,false,Rx,0,8,F9,1F,3C,0B,40,01,65,47,
134278765,00000522,false,Rx,0,6,01,06,00,04,63,62,00,00,
134284633,00000112,false,Rx,0,8,F9,1F,3B,0B,40,01,65,47,
134284884,0000003C,false,Rx,0,8,FF,5F,00,00,00,00,FF,FF,
134285128,0000003F,false,Rx,0,8,00,00,00,C0,00,C0,64,C0,
134285354,0000012F,false,Rx,0,8,F5,28,86,1D,F1,35,30,80,
134285535,000001A1,false,Rx,0,5,7C,CB,00,00,8A,00,00,00,
134285779,000002F1,false,Rx,0,8,36,10,7D,00,00,00,00,A0,
134286025,000003E9,false,Rx,0,8,FE,FF,00,00,00,00,00,00,
134286249,00000431,false,Rx,0,8,CA,FF,0B,02,69,26,F3,4B,
134287678,00000521,false,Rx,0,6,00,03,00,00,02,B3,00,00,
134293445,1801D08F,true,Rx,0,8,00,8C,00,6D,03,00,00,44,
134294641,00000112,false,Rx,0,8,FA,1F,3B,0B,40,01,65,47,
134302079,00000523,false,Rx,0,6,02,07,00,04,63,79,00,00,
134302299,00000524,false,Rx,0,6,03,07,00,00,00,25,00,00,
134302637,0000039D,false,Rx,0,5,20,57,01,28,00,00,00,00,
134304643,00000112,false,Rx,0,8,FA,1F,3B,0B,40,01,65,47,
134304825,000001A1,false,Rx,0,5,7C,CB,00,00,8A,00,00,00,
134308089,00000521,false,Rx,0,6,00,04,00,00,02,D9,00,00,
134314653,00000112,false,Rx,0,8,F9,1F,3B,0B,40,01,65,47,
134324659,00000112,false,Rx,0,8,F9,1F,3B,0B,40,01,65,47,
134324837,000001A1,false,Rx,0,5,7C,CB,00,00,8A,00,00,00,
134327670,00000521,false,Rx,0,6,00,05,00,00,02,CA,00,00,
134330651,000003B4,false,Rx,0,8,00,FF,B0,F4,B8,FF,00,00,
134334660,00000112,false,Rx,0,8,F9,1F,3B,0B,40,01,65,47,
134338670,00000522,false,Rx,0,6,01,07,00,04,63,8F,00,00,
134342615,0000039D,false,Rx,0,5,21,58,01,28,00,00,00,00,
134344661,00000112,false,Rx,0,8,F9,1F,3C,0B,40,01,65,47,
134344849,000001A1,false,Rx,0,5,7C,CB,00,00,8A,00,00,00,
134347745,00000521,false,Rx,0,6,00,06,00,00,02,E4,00,00,
134350673,00000272,false,Rx,0,8,D1,F4,71,11,FF,FF,FF,FF,
134354671,00000112,false,Rx,0,8,F9,1F,3C,0B,40,01,65,47,
134359284,00000351,false,Rx,0,8,20,0D,32,00,52,03,80,0A,
134359535,00000355,false,Rx,0,8,20,00,64,00,40,01,00,00,
134359770,00000100,false,Rx,0,8,01,00,00,00,8E,08,5C,12,
134360025,00000101,false,Rx,0,8,00,00,00,00,00,00,00,00,
134360260,00000356,false,Rx,0,8,5F,70,07,00,CE,00,00,00,
134361641,0000035A,false,Rx,0,8,00,00,00,00,00,00,00,00,
134361864,0000035E,false,Rx,0,8,53,49,4D,50,20,42,4D,53,
134362078,00000523,false,Rx,0,6,02,08,00,04,63,8B,00,00,
134362302,00000524,false,Rx,0,6,03,08,00,00,00,06,00,00,
134363630,00000370,false,Rx,0,8,53,49,4D,50,20,45,43,4F,
134364672,00000112,false,Rx,0,8,F9,1F,3C,0B,40,01,65,47,
134364854,000001A1,false,Rx,0,5,7C,CB,00,00,8A,00,00,00,
134365644,00000373,false,Rx,0,8,2A,0D,6E,0D,24,01,26,01,
134367659,00000379,false,Rx,0,8,D2,00,00,00,01,00,00,00,
134368071,00000521,false,Rx,0,6,00,07,00,00,02,D9,00,00,
134369669,00000372,false,Rx,0,8,0E,00,00,00,00,00,00,00,
134374671,00000112,false,Rx,0,8,F9,1F,3C,0B,40,01,65,47,
134382659,0000039D,false,Rx,0,5,22,59,01,28,00,00,00,00,
134384675,00000112,false,Rx,0,8,F9,1F,3C,0B,40,01,65,47,
134384926,0000003C,false,Rx,0,8,FF,5F,00,00,00,00,FF,FF,
134385108,000001A1,false,Rx,0,5,7C,CB,00,00,8A,00,00,00,
134385355,000002FA,false,Rx,0,8,FD,FF,05,FF,FF,FF,FF,FF,
134385578,0000012F,false,Rx,0,8,F5,28,86,1D,F1,35,30,80,
134385824,000002F1,false,Rx,0,8,36,10,7D,00,00,00,00,A0,
134386068,0000003F,false,Rx,0,8,00,00,00,00,00,00,64,65,
134386324,000003E9,false,Rx,0,8,FE,FF,00,00,00,00,00,00,
134386549,00000431,false,Rx,0,8,CA,FF,0B,02,69,26,F3,4B,
134386783,00000432,false,Rx,0,8,2C,E2,10,A3,40,FF,02,FF,
134387027,00000510,false,Rx,0,8,40,10,20,00,00,00,00,00,
134387273,0000051A,false,Rx,0,8,00,00,00,00,50,00,00,1A,
134387518,00000540,false,Rx,0,8,00,00,00,00,FD,3C,FF,40,
134387742,00000521,false,Rx,0,6,00,08,00,00,02,D1,00,00,
134393421,1801D08F,true,Rx,0,8,00,8C,00,6E,03,00,00,44,
134394691,00000112,false,Rx,0,8,F9,1F,3C,0B,40,01,65,47,
134398738,00000522,false,Rx,0,6,01,08,00,04,63,64,00,00,
134404702,00000112,false,Rx,0,8,F9,1F,3B,0B,40,01,65,47,
134404879,000001A1,false,Rx,0,5,7C,CB,00,00,8A,00,00,00,
134407744,00000521,false,Rx,0,6,00,09,00,00,02,D3,00,00,
134414702,00000112,false,Rx,0,8,F9,1F,3B,0B,40,01,65,47,
134422073,00000523,false,Rx,0,6,02,09,00,04,63,8D,00,00,
134422292,00000524,false,Rx,0,6,03,09,00,00,00,0E,00,00,
134422578,0000039D,false,Rx,0,5,23,5A,01,28,00,00,00,00,
134424699,00000112,false,Rx,0,8,F9,1F,3B,0B,40,01,65,47,
134424881,000001A1,false,Rx,0,5,7C,CB,00,00,8A,00,00,00,
134428074,00000521,false,Rx,0,6,00,0A,00,00,02,D9,00,00,
134434702,00000112,false,Rx,0,8,F9,1F,3B,0B,40,01,65,47,
134444707,00000112,false,Rx,0,8,F9,1F,3B,0B,40,01,65,47,
134444895,000001A1,false,Rx,0,5,7C,CB,00,00,8A,00,00,00,
134447739,00000521,false,Rx,0,6,00,0B,00,00,02,C0,00,00,
134454709,00000112,false,Rx,0,8,F9,1F,3B,0B,40,01,65,47,
134458730,00000522,false,Rx,0,6,01,09,00,04,63,66,00,00,
134459560,00000100,false,Rx,0,8,01,00,00,00,8E,08,5C,12,
134459814,00000101,false,Rx,0,8,00,00,00,00,00,00,00,00,
134462577,0000039D,false,Rx,0,5,24,5B,01,28,00,00,00,00,
134464716,00000112,false,Rx,0,8,F9,1F,3B,0B,40,01,65,47,
134464894,000001A1,false,Rx,0,5,7C,CB,00,00,8A,00,00,00,
134467654,00000521,false,Rx,0,6,00,0C,00,00,02,C9,00,00,
134474717,00000112,false,Rx,0,8,F9,1F,3B,0B,40,01,65,47,
134482063,00000523,false,Rx,0,6,02,0A,00,04,63,87,00,00,
134482283,00000524,false,Rx,0,6,03,0A,00,00,00,37,00,00,
134484727,00000112,false,Rx,0,8,F9,1F,3B,0B,40,01,65,47,
134484972,0000003C,false,Rx,0,8,FF,5F,00,00,00,00,FF,FF,
134485218,0000003F,false,Rx,0,8,00,00,00,40,00,40,64,6B,
134485441,0000012F,false,Rx,0,8,F5,28,86,1D,F1,35,30,80,
134485624,000001A1,false,Rx,0,5,7C,CB,00,00,8A,00,00,00,
134485868,000002F1,false,Rx,0,8,36,10,7D,00,00,00,00,A0,
134486112,000003E9,false,Rx,0,8,FE,FF,00,00,00,00,00,00,
134486345,00000431,false,Rx,0,8,CA,FF,0B,02,69,26,F3,4B,
134488060,00000521,false,Rx,0,6,00,0D,00,00,02,DF,00,00,
134493423,1801D08F,true,Rx,0,8,00,8C,00,6E,03,00,00,44,
134494733,00000112,false,Rx,0,8,F9,1F,3B,0B,40,01,65,47,
134502624,0000039D,false,Rx,0,5,25,5C,01,28,00,00,00,00,
134504731,00000112,false,Rx,0,8,F9,1F,3B,0B,40,01,65,47,
134504921,000001A1,false,Rx,0,5,7C,CB,00,00,8A,00,00,00,
134507648,00000521,false,Rx,0,6,00,0E,00,00,02,C8,00,00,
134514743,00000112,false,Rx,0,8,F9,1F,3B,0B,40,01,65,47,
134518723,00000522,false,Rx,0,6,01,0A,00,04,63,4C,00,00,
134524747,00000112,false,Rx,0,8,F9,1F,3B,0B,40,01,65,47,
134524925,000001A1,false,Rx,0,5,7C,CB,00,00,8A,00,00,00,
134527643,00000521,false,Rx,0,6,00,0F,00,00,02,C6,00,00,
134530993,000003B4,false,Rx,0,8,00,FF,B0,F4,B8,FF,00,00,
134534749,00000112,false,Rx,0,8,F9,1F,3B,0B,40,01,65,47,
134542063,00000523,false,Rx,0,6,02,0B,00,04,63,77,00,00,
134542272,00000524,false,Rx,0,6,03,0B,00,00,00,25,00,00,
134542643,0000039D,false,Rx,0,5,26,5D,01,28,00,00,00,00,
134542886,0000035D,false,Rx,0,8,00,00,00,00,00,00,00,00,
134544747,00000112,false,Rx,0,8,F9,1F,3B,0B,40,01,65,47,
134544930,000001A1,false,Rx,0,5,7C,CB,00,00,8A,00,00,00,
134548058,00000521,false,Rx,0,6,00,00,00,00,02,DC,00,00,
134551022,00000272,false,Rx,0,8,8C,F5,71,11,FF,FF,FF,FF,
134554758,00000112,false,Rx,0,8,F9,1F,3B,0B,40,01,65,47,
134559559,00000100,false,Rx,0,8,01,00,00,00,8E,08,5C,12,
134559810,00000101,false,Rx,0,8,00,00,00,00,00,00,00,00,
134564760,00000112,false,Rx,0,8,F9,1F,3B,0B,40,01,65,47,
134564937,000001A1,false,Rx,0,5,7C,CB,00,00,8A,00,00,00,
134567633,00000521,false,Rx,0,6,00,01,00,00,02,D5,00,00,
134574760,00000112,false,Rx,0,8,F9,1F,3B,0B,40,01,65,47,
134578706,00000522,false,Rx,0,6,01,0B,00,04,63,89,00,00,
134582621,0000039D,false,Rx,0,5,27,5E,01,28,00,00,00,00,
134584762,00000112,false,Rx,0,8,F9,1F,3C,0B,40,01,65,47,
134585013,0000003C,false,Rx,0,8,FF,5F,00,00,00,00,FF,FF,
134585196,000001A1,false,Rx,0,5,7C,CB,00,00,8A,00,00,00,
134585450,000002FA,false,Rx,0,8,FD,FF,05,FF,FF,FF,FF,FF,
134585675,0000012F,false,Rx,0,8,F5,28,86,1D,F1,35,30,80,
134585909,000002F1,false,Rx,0,8,36,10,7D,00,00,00,00,A0,
134586154,0000003F,false,Rx,0,8,00,00,00,80,00,80,64,CE,
134586410,000003E9,false,Rx,0,8,FE,FF,00,00,00,00,00,00,
134586634,00000431,false,Rx,0,8,CA,FF,0B,02,69,26,F3,4B,
134586868,00000432,false,Rx,0,8,2C,E2,10,A3,40,FF,02,FF,
134587113,00000510,false,Rx,0,8,40,10,20,00,00,00,00,00,
134587360,0000051A,false,Rx,0,8,00,00,00,00,50,00,00,1A,
134587604,00000540,false,Rx,0,8,00,00,00,00,FD,3C,FF,40,
134587808,00000521,false,Rx,0,6,00,02,00,00,02,DF,00,00,
134593426,1801D08F,true,Rx,0,8,00,8C,00,6E,03,00,00,44,
134594780,00000112,false,Rx,0,8,F9,1F,3C,0B,40,01,65,47,
134602057,00000523,false,Rx,0,6,02,0C,00,04,63,9A,00,00,
134602277,00000524,false,Rx,0,6,03,0C,00,00,00,10,00,00,
134604785,00000112,false,Rx,0,8,F9,1F,3C,0B,40,01,65,47,
134604967,000001A1,false,Rx,0,5,7C,CB,00,00,8A,00,00,00,
134608042,00000521,false,Rx,0,6,00,03,00,00,02,EB,00,00,
134614796,00000112,false,Rx,0,8,F9,1F,3C,0B,40,01,65,47,
134622595,0000039D,false,Rx,0,5,28,5F,01,28,00,00,00,00,
134622844,000005BD,false,Rx,0,8,8C,80,00,00,00,00,00,00,
134624796,00000112,false,Rx,0,8,F9,1F,3C,0B,40,01,65,47,
134624978,000001A1,false,Rx,0,5,7C,CB,00,00,8A,00,00,00,
134627709,00000521,false,Rx,0,6,00,04,00,00,02,DA,00,00,
134634795,00000112,false,Rx,0,8,F9,1F,3C,0B,40,01,65,47,
134638710,00000522,false,Rx,0,6,01,0C,00,04,63,3B,00,00,
134644800,00000112,false,Rx,0,8,F9,1F,3B,0B,40,01,65,47,
134644977,000001A1,false,Rx,0,5,7C,CB,00,00,8A,00,00,00,
134647621,00000521,false,Rx,0,6,00,05,00,00,02,DC,00,00,
134654802,00000112,false,Rx,0,8,F9,1F,3B,0B,40,01,65,47,
134659552,00000100,false,Rx,0,8,01,00,00,00,8E,08,5C,12,
134659803,00000101,false,Rx,0,8,00,00,00,00,00,00,00,00,
134662048,00000523,false,Rx,0,6,02,0D,00,04,63,8D,00,00,
134662263,00000524,false,Rx,0,6,03,0D,FF,FF,FF,D9,00,00,
134662622,0000039D,false,Rx,0,5,19,50,01,28,00,00,00,00,
134664808,00000112,false,Rx,0,8,F9,1F,3B,0B,40,01,65,47,
134664989,000001A1,false,Rx,0,5,7C,CB,00,00,8A,00,00,00,
134668047,00000521,false,Rx,0,6,00,06,00,00,02,BF,00,00,
134674811,00000112,false,Rx,0,8,F9,1F,3B,0B,40,01,65,47,
134684805,00000112,false,Rx,0,8,F9,1F,3B,0B,40,01,65,47,
134685056,0000003C,false,Rx,0,8,FF,5F,00,00,00,00,FF,FF,
134685303,0000003F,false,Rx,0,8,00,00,00,C0,00,C0,64,C0,
134685526,0000012F,false,Rx,0,8,F5,28,86,1D,F1,35,30,80,
134685708,000001A1,false,Rx,0,5,7C,CB,00,00,8A,00,00,00,
134685952,000002F1,false,Rx,0,8,36,10,7D,00,00,00,00,A0,
134686199,000003E9,false,Rx,0,8,FE,FF,00,00,00,00,00,00,
134686432,00000431,false,Rx,0,8,CA,FF,0B,02,69,26,F3,4B,
134687620,00000521,false,Rx,0,6,00,07,00,00,02,C2,00,00,
134693408,1801D08F,true,Rx,0,8,00,8C,00,6E,03,00,00,44,
134694824,00000112,false,Rx,0,8,F9,1F,3B,0B,40,01,65,47,
134698704,00000522,false,Rx,0,6,01,0D,00,04,63,39,00,00,
134702608,0000039D,false,Rx,0,5,1A,51,01,28,00,00,00,00,
134704822,00000112,false,Rx,0,8,F9,1F,3B,0B,40,01,65,47,
134705010,000001A1,false,Rx,0,5,7C,CB,00,00,8A,00,00,00,
134707697,00000521,false,Rx,0,6,00,08,00,00,02,D9,00,00,
134714833,00000112,false,Rx,0,8,F9,1F,3B,0B,40,01,65,47,
134722030,00000523,false,Rx,0,6,02,0E,00,04,63,7F,00,00,
134722241,00000524,false,Rx,0,6,03,0E,00,00,00,0E,00,00,
134724832,00000112,false,Rx,0,8,F9,1F,3B,0B,40,01,65,47,
134725013,000001A1,false,Rx,0,5,7C,CB,00,00,8A,00,00,00,
134728037,00000521,false,Rx,0,6,00,09,00,00,02,C4,00,00,
134731245,00000337,false,Rx,0,2,FF,FF,00,00,00,00,00,00,
134731516,000003B4,false,Rx,0,8,00,FF,B0,F4,B8,FF,00,00,
134734832,00000112,false,Rx,0,8,F9,1F,3B,0B,40,01,65,47,
134742629,0000039D,false,Rx,0,5,1B,52,01,28,00,00,00,00,
134744833,00000112,false,Rx,0,8,F9,1F,3B,0B,40,01,65,47,
134745021,000001A1,false,Rx,0,5,7C,CB,00,00,8A,00,00,00,
134747613,00000521,false,Rx,0,6,00,0A,00,00,02,BC,00,00,
134751372,00000272,false,Rx,0,8,6B,F6,71,11,FF,FF,FF,FF,
134754842,00000112,false,Rx,0,8,F9,1F,3B,0B,40,01,65,47,
134758694,00000522,false,Rx,0,6,01,0E,00,04,63,6A,00,00,
134759543,00000100,false,Rx,0,8,01,00,00,00,8E,08,5C,12,
134759799,00000101,false,Rx,0,8,00,00,00,00,00,00,00,00,
134764841,00000112,false,Rx,0,8,F9,1F,3B,0B,40,01,65,47,
134765028,000001A1,false,Rx,0,5,7C,CB,00,00,8A,00,00,00,
134767694,00000521,false,Rx,0,6,00,0B,00,00,02,B5,00,00,
134774841,00000112,false,Rx,0,8,FA,1F,3B,0B,40,01,65,47,
134782027,00000523,false,Rx,0,6,02,0F,00,04,63,77,00,00,
134782250,00000524,false,Rx,0,6,03,0F,00,00,00,14,00,00,
134782609,0000039D,false,Rx,0,5,1C,53,01,28,00,00,00,00,
134784845,00000112,false,Rx,0,8,FA,1F,3B,0B,40,01,65,47,
134785100,0000003C,false,Rx,0,8,FF,5F,00,00,00,00,FF,FF,
134785284,000001A1,false,Rx,0,5,7C,CB,00,00,8A,00,00,00,
134785527,000002FA,false,Rx,0,8,FD,FF,05,FF,FF,FF,FF,FF,
134785751,0000012F,false,Rx,0,8,F5,28,86,1D,F1,35,30,80,
134785996,000002F1,false,Rx,0,8,36,10,7D,00,00,00,00,A0,
134786248,0000003F,false,Rx,0,8,00,00,00,00,00,00,64,65,
134786493,000003E9,false,Rx,0,8,FE,FF,00,00,00,00,00,00,
134786717,00000431,false,Rx,0,8,CA,FF,0B,02,69,26,F3,4B,
134786951,00000432,false,Rx,0,8,2C,E2,10,A3,40,FF,02,FF,
134787197,00000510,false,Rx,0,8,40,10,20,00,00,00,00,00,
134787443,0000051A,false,Rx,0,8,00,00,00,00,50,00,00,1A,
134787687,00000540,false,Rx,0,8,00,00,00,00,FD,3C,FF,40,
134788026,00000521,false,Rx,0,6,00,0C,00,00,02,CE,00,00,
134793401,1801D08F,true,Rx,0,8,00,8C,00,6D,03,00,00,44,
134794869,00000112,false,Rx,0,8,F9,1F,3B,0B,40,01,65,47,
134804871,00000112,false,Rx,0,8,F9,1F,3B,0B,40,01,65,47,
134805059,000001A1,false,Rx,0,5,7C,CB,00,00,8A,00,00,00,
134807609,00000521,false,Rx,0,6,00,0D,00,00,02,B6,00,00,
134814872,00000112,false,Rx,0,8,FA,1F,3B,0B,40,01,65,47,
134818692,00000522,false,Rx,0,6,01,0F,00,04,63,75,00,00,
134822564,0000039D,false,Rx,0,5,1D,54,01,28,00,00,00,00,
134824884,00000112,false,Rx,0,8,FA,1F,3C,0B,40,01,65,47,
134825061,000001A1,false,Rx,0,5,7C,CB,00,00,8A,00,00,00,
134827612,00000521,false,Rx,0,6,00,0E,00,00,02,D4,00,00,
134834885,00000112,false,Rx,0,8,F9,1F,3C,0B,40,01,65,47,
134842019,00000523,false,Rx,0,6,02,00,00,04,63,73,00,00,
134842239,00000524,false,Rx,0,6,03,00,00,00,00,0A,00,00,
134844892,00000112,false,Rx,0,8,F9,1F,3C,0B,40,01,65,47,
134845075,000001A1,false,Rx,0,5,7C,CB,00,00,8A,00,00,00,
134848013,00000521,false,Rx,0,6,00,0F,00,00,02,CE,00,00,
134854894,00000112,false,Rx,0,8,F9,1F,3C,0B,40,01,65,47,
134859537,00000100,false,Rx,0,8,01,00,00,00,8E,08,5C,12,
134859789,00000101,false,Rx,0,8,00,00,00,00,00,00,00,00,
134862601,0000039D,false,Rx,0,5,1E,55,01,28,00,00,00,00,
134864898,00000112,false,Rx,0,8,F9,1F,3C,0B,40,01,65,47,
134865081,000001A1,false,Rx,0,5,7C,CB,00,00,8A,00,00,00,
134867675,00000521,false,Rx,0,6,00,00,00,00,02,E0,00,00,
134872676,0000035D,false,Rx,0,8,01,00,00,00,00,00,00,00,
134874903,00000112,false,Rx,0,8,F9,1F,3C,0B,40,01,65,47,
134878671,00000522,false,Rx,0,6,01,00,00,04,63,52,00,00,
134884899,00000112,false,Rx,0,8,F9,1F,3B,0B,40,01,65,47,
134885152,0000003C,false,Rx,0,8,FF,5F,00,00,00,00,FF,FF,
134885396,0000003F,false,Rx,0,8,00,00,00,40,00,40,64,6B,
134885620,0000012F,false,Rx,0,8,F5,28,86,1D,F1,35,30,80,
134885803,000001A1,false,Rx,0,5,7C,CB,00,00,8A,00,00,00,
134886046,000002F1,false,Rx,0,8,36,10,7D,00,00,00,00,A0,
134886292,000003E9,false,Rx,0,8,FE,FF,00,00,00,00,00,00,
134886517,00000431,false,Rx,0,8,CA,FF,0B,02,69,26,F3,4B,
134887682,00000521,false,Rx,0,6,00,01,00,00,02,C9,00,00,
134893416,1801D08F,true,Rx,0,8,00,8C,00,6E,03,00,00,44,
134894916,00000112,false,Rx,0,8,F9,1F,3B,0B,40,01,65,47,
134902006,00000523,false,Rx,0,6,02,01,00,04,63,9C,00,00,
134902226,00000524,false,Rx,0,6,03,01,00,00,00,08,00,00,
134902616,0000039D,false,Rx,0,5,1F,56,01,28,00,00,00,00,
134904916,00000112,false,Rx,0,8,F9,1F,3B,0B,40,01,65,47,
134905099,000001A1,false,Rx,0,5,7C,CB,00,00,8A,00,00,00,
134908007,00000521,false,Rx,0,6,00,02,00,00,02,C1,00,00,
134914919,00000112,false,Rx,0,8,F9,1F,3B,0B,40,01,65,47,
134924926,00000112,false,Rx,0,8,F9,1F,3B,0B,40,01,65,47,
134925104,000001A1,false,Rx,0,5,7C,CB,00,00,8A,00,00,00,
134927591,00000521,false,Rx,0,6,00,03,00,00,02,C9,00,00,
134931699,000003B4,false,Rx,0,8,00,FF,B0,F4,B8,FF,00,00,
134934928,00000112,false,Rx,0,8,F9,1F,3B,0B,40,01,65,47,
134938662,00000522,false,Rx,0,6,01,01,00,04,63,71,00,00,
134942578,0000039D,false,Rx,0,5,20,57,01,28,00,00,00,00,
134944928,00000112,false,Rx,0,8,F9,1F,3C,0B,40,01,65,47,
134945116,000001A1,false,Rx,0,5,7C,CB,00,00,8A,00,00,00,
134947665,00000521,false,Rx,0,6,00,04,00,00,02,DC,00,00,
134951719,00000272,false,Rx,0,8,36,F7,71,11,FF,FF,FF,FF,
134954927,00000112,false,Rx,0,8,F9,1F,3C,0B,40,01,65,47,
134959539,00000100,false,Rx,0,8,01,00,00,00,8E,08,5C,12,
134959790,00000101,false,Rx,0,8,00,00,00,00,00,00,00,00,
134962004,00000523,false,Rx,0,6,02,02,00,04,63,6F,00,00,
134962229,00000524,false,Rx,0,6,03,02,00,00,00,06,00,00,
134964937,00000112,false,Rx,0,8,F9,1F,3C,0B,40,01,65,47,
134965119,000001A1,false,Rx,0,5,7C,CB,00,00,8A,00,00,00,
134967999,00000521,false,Rx,0,6,00,05,00,00,02,CE,00,00,
134974943,00000112,false,Rx,0,8,F9,1F,3C,0B,40,01,65,47,
134982597,0000039D,false,Rx,0,5,21,58,01,28,00,00,00,00,
134984939,00000112,false,Rx,0,8,F9,1F,3C,0B,40,01,65,47,
134985127,000001A1,false,Rx,0,5,7C,CB,00,00,8A,00,00,00,
134985372,000002FA,false,Rx,0,8,FD,FF,05,FF,FF,FF,FF,FF,
134985574,00000328,false,Rx,0,6,D3,00,00,00,87,1E,00,00,
134985830,0000003C,false,Rx,0,8,FF,5F,00,00,00,00,FF,FF,
134985959,000003E8,false,Rx,0,2,F1,FF,00,00,00,00,00,00,
134986214,000003E9,false,Rx,0,8,FE,FF,00,00,00,00,00,00,
134986439,0000012F,false,Rx,0,8,F5,28,86,1D,F1,35,30,80,
134986683,000002F1,false,Rx,0,8,36,10,7D,00,00,00,00,A0,
134986927,0000003F,false,Rx,0,8,00,00,00,80,00,80,64,CE,
134987156,000003F9,false,Rx,0,8,C0,F9,80,E0,43,3C,F3,FF,
134987390,00000431,false,Rx,0,8,CA,FF,0B,02,69,26,F3,4B,
134987623,00000432,false,Rx,0,8,2C,E2,10,A3,40,FF,02,FF,
134987868,00000510,false,Rx,0,8,40,10,20,00,00,00,00,00,
134988113,0000051A,false,Rx,0,8,00,00,00,00,50,00,00,1A,
134988318,00000521,false,Rx,0,6,00,06,00,00,02,C1,00,00,
134988562,00000540,false,Rx,0,8,00,00,00,00,FD,3C,FF,40,
134990223,00000351,false,Rx,0,8,20,0D,32,00,52,03,80,0A,
134990468,00000355,false,Rx,0,8,20,00,64,00,40,01,00,00,
134990712,00000356,false,Rx,0,8,5E,70,07,00,CE,00,00,00,
134992575,0000035A,false,Rx,0,8,00,00,00,00,00,00,00,00,
134992799,0000035E,false,Rx,0,8,53,49,4D,50,20,42,4D,53,
134993399,1801D08F,true,Rx,0,8,00,8C,00,6E,03,00,00,44,
134994557,00000370,false,Rx,0,8,53,49,4D,50,20,45,43,4F,
134994970,00000112,false,Rx,0,8,F9,1F,3C,0B,40,01,65,47,
134996581,00000373,false,Rx,0,8,2A,0D,6E,0D,24,01,26,01,
134998595,00000379,false,Rx,0,8,D2,00,00,00,01,00,00,00,
134998798,00000522,false,Rx,0,6,01,02,00,04,63,A0,00,00,
135000604,00000372,false,Rx,0,8,0E,00,00,00,00,00,00,00,
135004970,00000112,false,Rx,0,8,F9,1F,3C,0B,40,01,65,47,
135005149,000001A1,false,Rx,0,5,7C,CB,00,00,8A,00,00,00,
135007666,00000521,false,Rx,0,6,00,07,00,00,02,D9,00,00,
135014971,00000112,false,Rx,0,8,F9,1F,3C,0B,40,01,65,47,
135022000,00000523,false,Rx,0,6,02,03,00,04,63,87,00,00,
135022220,00000524,false,Rx,0,6,03,03,FF,FF,FF,F4,00,00,
135022601,0000039D,false,Rx,0,5,22,59,01,28,00,00,00,00,
135024974,00000112,false,Rx,0,8,F9,1F,3C,0B,40,01,65,47,
135025157,000001A1,false,Rx,0,5,7C,CB,00,00,8A,00,00,00,
135027991,00000521,false,Rx,0,6,00,08,00,00,02,C9,00,00,
135034977,00000112,false,Rx,0,8,F9,1F,3C,0B,40,01,65,47,
135044981,00000112,false,Rx,0,8,F9,1F,3C,0B,40,01,65,47,
135045170,000001A1,false,Rx,0,5,7C,CB,00,00,8A,00,00,00,
135047571,00000521,false,Rx,0,6,00,09,00,00,02,C8,00,00,
135054981,00000112,false,Rx,0,8,F9,1F,3C,0B,40,01,65,47,
135058644,00000522,false,Rx,0,6,01,03,00,04,63,68,00,00,
135059535,00000100,false,Rx,0,8,01,00,00,00,8E,08,5C,12,
135059779,00000101,false,Rx,0,8,00,00,00,00,00,00,00,00,
135062584,0000039D,false,Rx,0,5,23,5A,01,28,00,00,00,00,
135064987,00000112,false,Rx,0,8,F9,1F,3B,0B,40,01,65,47,
135065166,000001A1,false,Rx,0,5,7C,CB,00,00,8A,00,00,00,
135067641,00000521,false,Rx,0,6,00,0A,00,00,02,D4,00,00,
135074989,00000112,false,Rx,0,8,F9,1F,3B,0B,40,01,65,47,
135081986,00000523,false,Rx,0,6,02,04,00,04,63,94,00,00,
135082205,00000524,false,Rx,0,6,03,04,00,00,00,22,00,00,
135084997,00000112,false,Rx,0,8,F9,1F,3B,0B,40,01,65,47,
135085243,0000003C,false,Rx,0,8,FF,5F,00,00,00,00,FF,FF,
135085488,0000003F,false,Rx,0,8,00,00,00,C0,00,C0,64,C0,
135085712,0000012F,false,Rx,0,8,F5,28,86,1D,F1,35,30,80,
135085893,000001A1,false,Rx,0,5,7C,CB,00,00,8A,00,00,00,
135086142,000002F1,false,Rx,0,8,36,10,7D,00,00,00,00,A0,
135086388,000003E9,false,Rx,0,8,FE,FF,00,00,00,00,00,00,
135086611,00000431,false,Rx,0,8,CA,FF,0B,02,69,26,F3,4B,
135087979,00000521,false,Rx,0,6,00,0B,00,00,02,B8,00,00,
135093420,1801D08F,true,Rx,0,8,00,8C,00,6D,03,00,00,44,
135095004,00000112,false,Rx,0,8,FA,1F,3B,0B,40,01,65,47,
135102601,0000039D,false,Rx,0,5,24,5B,01,28,00,00,00,00,
135105005,00000112,false,Rx,0,8,FA,1F,3B,0B,40,01,65,47,
135105183,000001A1,false,Rx,0,5,7C,CB,00,00,8A,00,00,00,
135107637,00000521,false,Rx,0,6,00,0C,00,00,02,CD,00,00,
135115016,00000112,false,Rx,0,8,F9,1F,3B,0B,40,01,65,47,
135118562,00000522,false,Rx,0,6,01,04,00,04,63,6F,00,00,
135125009,00000112,false,Rx,0,8,F9,1F,3B,0B,40,01,65,47,
135125198,000001A1,false,Rx,0,5,7C,CB,00,00,8A,00,00,00,
135127632,00000521,false,Rx,0,6,00,0D,00,00,02,CD,00,00,
135132047,000003B4,false,Rx,0,8,00,FF,B0,F4,B8,FF,00,00,
135135022,00000112,false,Rx,0,8,F9,1F,3B,0B,40,01,65,47,
135141966,00000523,false,Rx,0,6,02,05,00,04,63,9A,00,00,
135142196,00000524,false,Rx,0,6,03,05,00,00,00,12,00,00,
135142546,0000039D,false,Rx,0,5,25,5C,01,28,00,00,00,00,
135145023,00000112,false,Rx,0,8,F9,1F,3B,0B,40,01,65,47,
135145205,000001A1,false,Rx,0,5,7C,CB,00,00,8A,00,00,00,
135147966,00000521,false,Rx,0,6,00,0E,00,00,02,D5,00,00,
135152070,00000272,false,Rx,0,8,6A,F8,71,11,FF,FF,FF,FF,
135155025,00000112,false,Rx,0,8,F9,1F,3B,0B,40,01,65,47,
135159501,00000100,false,Rx,0,8,01,00,00,00,8E,08,5C,12,
135159752,00000101,false,Rx,0,8,00,00,00,00,00,00,00,00,
135165028,00000112,false,Rx,0,8,F9,1F,3B,0B,40,01,65,47,
135165208,000001A1,false,Rx,0,5,7C,CB,00,00,8A,00,00,00,
135167631,00000521,false,Rx,0,6,00,0F,00,00,02,D0,00,00,
135175031,00000112,false,Rx,0,8,F9,1F,3B,0B,40,01,65,47,
135178546,00000522,false,Rx,0,6,01,05,00,04,63,8B,00,00,
135182578,0000039D,false,Rx,0,5,26,5D,01,28,00,00,00,00,
135185035,00000112,false,Rx,0,8,F9,1F,3C,0B,40,01,65,47,
135185288,0000003C,false,Rx,0,8,FF,5F,00,00,00,00,FF,FF,
135185470,000001A1,false,Rx,0,5,7C,CB,00,00,8A,00,00,00,
135185714,000002FA,false,Rx,0,8,FD,FF,05,FF,FF,FF,FF,FF,
135185937,0000012F,false,Rx,0,8,F5,28,86,1D,F1,35,30,80,
135186184,000002F1,false,Rx,0,8,36,10,7D,00,00,00,00,A0,
135186428,0000003F,false,Rx,0,8,00,00,00,00,00,00,64,65,
135186683,000003E9,false,Rx,0,8,FE,FF,00,00,00,00,00,00,
135186908,00000431,false,Rx,0,8,CA,FF,0B,02,69,26,F3,4B,
135187143,00000432,false,Rx,0,8,2C,E2,10,A3,40,FF,02,FF,
135187387,00000510,false,Rx,0,8,40,10,20,00,00,00,00,00,
135187633,0000051A,false,Rx,0,8,00,00,00,00,50,00,00,1A,
135187836,00000521,false,Rx,0,6,00,00,00,00,02,D9,00,00,
135188080,00000540,false,Rx,0,8,00,00,00,00,FD,3C,FF,40,
135193403,1801D08F,true,Rx,0,8,00,8C,00,6E,03,00,00,44,
135195060,00000112,false,Rx,0,8,F9,1F,3C,0B,40,01,65,47,
135201971,00000523,false,Rx,0,6,02,06,00,04,63,89,00,00,
135202182,00000524,false,Rx,0,6,03,06,00,00,00,12,00,00,
135202656,0000035D,false,Rx,0,8,02,00,88,08,00,00,20,F0,
135205060,00000112,false,Rx,0,8,F9,1F,3C,0B,40,01,65,47,
135205244,000001A1,false,Rx,0,5,7C,CB,00,00,8A,00,00,00,
135207963,00000521,false,Rx,0,6,00,01,00,00,02,D6,00,00,
135215064,00000112,false,Rx,0,8,F9,1F,3C,0B,40,01,65,47,
135222591,0000039D,false,Rx,0,5,27,5E,01,28,00,00,00,00,
135225068,00000112,false,Rx,0,8,F9,1F,3C,0B,40,01,65,47,
135225248,000001A1,false,Rx,0,5,7C,CB,00,00,8A,00,00,00,
135227545,00000521,false,Rx,0,6,00,02,00,00,02,F9,00,00,
135235069,00000112,false,Rx,0,8,F9,1F,3C,0B,40,01,65,47,
135238615,00000522,false,Rx,0,6,01,06,00,04,63,50,00,00,
135245073,00000112,false,Rx,0,8,F9,1F,3B,0B,40,01,65,47,
135245252,000001A1,false,Rx,0,5,7C,CB,00,00,8A,00,00,00,
135247622,00000521,false,Rx,0,6,00,03,00,00,02,D9,00,00,
135255075,00000112,false,Rx,0,8,F9,1F,3B,0B,40,01,65,47,
135259487,00000100,false,Rx,0,8,01,00,00,00,8E,08,5C,12,
135259748,00000101,false,Rx,0,8,00,00,00,00,00,00,00,00,
135261962,00000523,false,Rx,0,6,02,07,00,04,63,68,00,00,
135262188,00000524,false,Rx,0,6,03,07,FF,FF,FF,F4,00,00,
135262610,0000039D,false,Rx,0,5,28,5F,01,28,00,00,00,00,
135265078,00000112,false,Rx,0,8,F9,1F,3B,0B,40,01,65,47,
135265251,000001A1,false,Rx,0,5,7C,CB,00,00,8A,00,00,00,
135267961,00000521,false,Rx,0,6,00,04,00,00,02,C1,00,00,
135275075,00000112,false,Rx,0,8,F9,1F,3B,0B,40,01,65,47,
135285081,00000112,false,Rx,0,8,F9,1F,3B,0B,40,01,65,47,
135285334,0000003C,false,Rx,0,8,FF,5F,00,00,00,00,FF,FF,
135285579,0000003F,false,Rx,0,8,00,00,00,40,00,40,64,6B,
135285802,0000012F,false,Rx,0,8,F5,28,86,1D,F1,35,30,80,
135285985,000001A1,false,Rx,0,5,7C,CB,00,00,8A,00,00,00,
135286230,000002F1,false,Rx,0,8,36,10,7D,00,00,00,00,A0,
135286474,000003E9,false,Rx,0,8,FE,FF,00,00,00,00,00,00,
135286699,00000431,false,Rx,0,8,CA,FF,0B,02,69,26,F3,4B,
135287603,00000521,false,Rx,0,6,00,05,00,00,02,CB,00,00,
135293409,1801D08F,true,Rx,0,8,00,8C,00,6D,03,00,00,44,
135295090,00000112,false,Rx,0,8,F9,1F,3B,0B,40,01,65,47,
135298612,00000522,false,Rx,0,6,01,07,00,04,63,89,00,00,
135302557,0000039D,false,Rx,0,5,19,50,01,28,00,00,00,00,
135305100,00000112,false,Rx,0,8,F9,1F,3C,0B,40,01,65,47,
135305278,000001A1,false,Rx,0,5,7C,CB,00,00,8A,00,00,00,
135307607,00000521,false,Rx,0,6,00,06,00,00,02,BC,00,00,
135315100,00000112,false,Rx,0,8,F9,1F,3C,0B,40,01,65,47,
135321959,00000523,false,Rx,0,6,02,08,00,04,63,7D,00,00,
135322180,00000524,false,Rx,0,6,03,08,FF,FF,FF,FC,00,00,
135325107,00000112,false,Rx,0,8,F9,1F,3C,0B,40,01,65,47,
135325289,000001A1,false,Rx,0,5,7C,CB,00,00,8A,00,00,00,
135327934,00000521,false,Rx,0,6,00,07,00,00,02,AE,00,00,
135332388,000003B4,false,Rx,0,8,00,FF,B0,F4,B8,FF,00,00,
135335110,00000112,false,Rx,0,8,FA,1F,3C,0B,40,01,65,47,
135342549,0000039D,false,Rx,0,5,1A,51,01,28,00,00,00,00,
135345112,00000112,false,Rx,0,8,FA,1F,3C,0B,40,01,65,47,
135345292,000001A1,false,Rx,0,5,7C,CB,00,00,8A,00,00,00,
135347599,00000521,false,Rx,0,6,00,08,00,00,02,E1,00,00,
135352422,00000272,false,Rx,0,8,37,F9,71,11,FF,FF,FF,FF,
135355112,00000112,false,Rx,0,8,F9,1F,3C,0B,40,01,65,47,
135358594,00000522,false,Rx,0,6,01,08,00,04,63,73,00,00,
135359496,00000100,false,Rx,0,8,01,00,00,00,8E,08,5C,12,
135359752,00000101,false,Rx,0,8,00,00,00,00,00,00,00,00,
135365121,00000112,false,Rx,0,8,F9,1F,3C,0B,40,01,65,47,
135365300,000001A1,false,Rx,0,5,7C,CB,00,00,8A,00,00,00,
135367597,00000521,false,Rx,0,6,00,09,00,00,02,DE,00,00,
135375124,00000112,false,Rx,0,8,F9,1F,3C,0B,40,01,65,47,
135381942,00000523,false,Rx,0,6,02,09,00,04,63,A0,00,00,
135382162,00000524,false,Rx,0,6,03,09,00,00,00,06,00,00,
135382615,0000039D,false,Rx,0,5,1B,52,01,28,00,00,00,00,
135385126,00000112,false,Rx,0,8,F9,1F,3C,0B,40,01,65,47,
135385372,0000003C,false,Rx,0,8,FF,5F,00,00,00,00,FF,FF,
135385553,000001A1,false,Rx,0,5,7C,CB,00,00,8A,00,00,00,
135385798,000002FA,false,Rx,0,8,FD,FF,05,FF,FF,FF,FF,FF,
135386024,0000012F,false,Rx,0,8,F5,28,86,1D,F1,35,30,80,
135386269,000002F1,false,Rx,0,8,36,10,7D,00,00,00,00,A0,
135386515,0000003F,false,Rx,0,8,00,00,00,80,00,80,64,CE,
135386759,000003E9,false,Rx,0,8,FE,FF,00,00,00,00,00,00,
135386993,00000431,false,Rx,0,8,CA,FF,0B,02,69,26,F3,4B,
135387229,00000432,false,Rx,0,8,2C,E2,10,A3,40,FF,02,FF,
135387474,00000510,false,Rx,0,8,40,10,20,00,00,00,00,00,
135387719,0000051A,false,Rx,0,8,00,00,00,00,50,00,00,1A,
135387963,00000540,false,Rx,0,8,00,00,00,00,FD,3C,FF,40,
135388171,00000521,false,Rx,0,6,00,0A,00,00,02,D3,00,00,
135393405,1801D08F,true,Rx,0,8,00,8C,00,6D,03,00,00,44,
135395146,00000112,false,Rx,0,8,F9,1F,3C,0B,40,01,65,47,
135405151,00000112,false,Rx,0,8,F9,1F,3C,0B,40,01,65,47,
135405329,000001A1,false,Rx,0,5,7C,CB,00,00,8A,00,00,00,
135407511,00000521,false,Rx,0,6,00,0B,00,00,02,E0,00,00,
135415153,00000112,false,Rx,0,8,F9,1F,3C,0B,40,01,65,47,
135418580,00000522,false,Rx,0,6,01,09,00,04,63,4A,00,00,
135422568,0000039D,false,Rx,0,5,1C,53,01,28,00,00,00,00,
135425153,00000112,false,Rx,0,8,F9,1F,3B,0B,40,01,65,47,
135425331,000001A1,false,Rx,0,5,7C,CB,00,00,8A,00,00,00,
135427586,00000521,false,Rx,0,6,00,0C,00,00,02,D3,00,00,
135435154,00000112,false,Rx,0,8,F9,1F,3B,0B,40,01,65,47,
135441918,00000523,false,Rx,0,6,02,0A,00,04,63,6F,00,00,
135442138,00000524,false,Rx,0,6,03,0A,FF,FF,FF,F0,00,00,
135445161,00000112,false,Rx,0,8,F9,1F,3B,0B,40,01,65,47,
135445343,000001A1,false,Rx,0,5,7C,CB,00,00,8A,00,00,00,
135447926,00000521,false,Rx,0,6,00,0D,00,00,02,E1,00,00,
135455164,00000112,false,Rx,0,8,F9,1F,3B,0B,40,01,65,47,
135459501,00000100,false,Rx,0,8,01,00,00,00,8E,08,5C,12,
135459752,00000101,false,Rx,0,8,00,00,00,00,00,00,00,00,
135462586,0000039D,false,Rx,0,5,1D,54,01,28,00,00,00,00,
135465167,00000112,false,Rx,0,8,F9,1F,3B,0B,40,01,65,47,
135465348,000001A1,false,Rx,0,5,7C,CB,00,00,8A,00,00,00,
135467501,00000521,false,Rx,0,6,00,0E,00,00,02,D3,00,00,
135475162,00000112,false,Rx,0,8,F9,1F,3B,0B,40,01,65,47,
135478569,00000522,false,Rx,0,6,01,0A,00,04,63,9A,00,00,
135485175,00000112,false,Rx,0,8,F9,1F,3C,0B,40,01,65,47,
135485415,0000003C,false,Rx,0,8,FF,5F,00,00,00,00,FF,FF,
135485661,0000003F,false,Rx,0,8,00,00,00,C0,00,C0,64,C0,
135485895,0000012F,false,Rx,0,8,F5,28,86,1D,F1,35,30,80,
135486077,000001A1,false,Rx,0,5,7C,CB,00,00,8A,00,00,00,
135486311,000002F1,false,Rx,0,8,36,10,7D,00,00,00,00,A0,
135486567,000003E9,false,Rx,0,8,FE,FF,00,00,00,00,00,00,
135486790,00000431,false,Rx,0,8,CA,FF,0B,02,69,26,F3,4B,
135487579,00000521,false,Rx,0,6,00,0F,00,00,02,DC,00,00,
135493386,1801D08F,true,Rx,0,8,00,8C,00,6D,03,00,00,44,
135495180,00000112,false,Rx,0,8,F9,1F,3C,0B,40,01,65,47,
135501921,00000523,false,Rx,0,6,02,0B,00,04,63,94,00,00,
135502141,00000524,false,Rx,0,6,03,0B,00,00,00,16,00,00,
135502533,0000039D,false,Rx,0,5,1E,55,01,28,00,00,00,00,
135505190,00000112,false,Rx,0,8,F9,1F,3C,0B,40,01,65,47,
135505372,000001A1,false,Rx,0,5,7C,CB,00,00,8A,00,00,00,
135507913,00000521,false,Rx,0,6,00,00,00,00,02,E3,00,00,
135515193,00000112,false,Rx,0,8,F9,1F,3C,0B,40,01,65,47,
135525188,00000112,false,Rx,0,8,F9,1F,3C,0B,40,01,65,47,
135525376,000001A1,false,Rx,0,5,7C,CB,00,00,8A,00,00,00,
135527568,00000521,false,Rx,0,6,00,01,00,00,02,CA,00,00,
135532751,0000035D,false,Rx,0,8,00,00,00,00,00,00,00,00,
135532992,000003B4,false,Rx,0,8,00,FF,B0,F4,B8,FF,00,00,
135535198,00000112,false,Rx,0,8,F9,1F,3C,0B,40,01,65,47,
135538567,00000522,false,Rx,0,6,01,0B,00,04,63,60,00,00,
135542543,0000039D,false,Rx,0,5,1F,56,01,28,00,00,00,00,
135545201,00000112,false,Rx,0,8,F9,1F,3B,0B,40,01,65,47,
135545378,000001A1,false,Rx,0,5,7C,CB,00,00,8A,00,00,00,
135547486,00000521,false,Rx,0,6,00,02,00,00,02,D6,00,00,
135552764,00000272,false,Rx,0,8,D0,FA,71,11,FF,FF,FF,FF,
135555202,00000112,false,Rx,0,8,F9,1F,3B,0B,40,01,65,47,
135559507,00000100,false,Rx,0,8,01,00,00,00,8E,08,5C,12,
135559758,00000101,false,Rx,0,8,00,00,00,00,00,00,00,00,
135561919,00000523,false,Rx,0,6,02,0C,00,04,63,73,00,00,
135562134,00000524,false,Rx,0,6,03,0C,FF,FF,FF,FE,00,00,
135565200,00000112,false,Rx,0,8,F9,1F,3B,0B,40,01,65,47,
135565382,000001A1,false,Rx,0,5,7C,CB,00,00,8A,00,00,00,
135567904,00000521,false,Rx,0,6,00,03,00,00,02,BB,00,00,
135575207,00000112,false,Rx,0,8,FA,1F,3B,0B,40,01,65,47,
135582604,0000039D,false,Rx,0,5,20,57,01,28,00,00,00,00,
135585210,00000112,false,Rx,0,8,FA,1F,3B,0B,40,01,65,47,
135585462,0000003C,false,Rx,0,8,FF,5F,00,00,00,00,FF,FF,
135585644,000001A1,false,Rx,0,5,7C,CB,00,00,8A,00,00,00,
135585887,000002FA,false,Rx,0,8,FD,FF,05,FF,FF,FF,FF,FF,
135586111,0000012F,false,Rx,0,8,F5,28,86,1D,F1,35,30,80,
135586358,000002F1,false,Rx,0,8,36,10,7D,00,00,00,00,A0,
135586602,0000003F,false,Rx,0,8,00,00,00,00,00,00,64,65,
135586857,000003E9,false,Rx,0,8,FE,FF,00,00,00,00,00,00,
135587082,00000431,false,Rx,0,8,CA,FF,0B,02,69,26,F3,4B,
135587317,00000432,false,Rx,0,8,2C,E2,10,A3,40,FF,02,FF,
135587561,00000510,false,Rx,0,8,40,10,20,00,00,00,00,00,
135587807,0000051A,false,Rx,0,8,00,00,00,00,50,00,00,1A,
135588009,00000521,false,Rx,0,6,00,04,00,00,02,C6,00,00,
135588255,00000540,false,Rx,0,8,00,00,00,00,FD,3C,FF,40,
135593387,1801D08F,true,Rx,0,8,00,8C,00,6E,03,00,00,44,
135595234,00000112,false,Rx,0,8,F9,1F,3B,0B,40,01,65,47,
135598473,00000522,false,Rx,0,6,01,0C,00,04,63,7D,00,00,
135605237,00000112,false,Rx,0,8,F9,1F,3C,0B,40,01,65,47,
135605416,000001A1,false,Rx,0,5,7C,CB,00,00,8A,00,00,00,
135607554,00000521,false,Rx,0,6,00,05,00,00,02,BF,00,00,
135615237,00000112,false,Rx,0,8,F9,1F,3C,0B,40,01,65,47,
135621506,00000351,false,Rx,0,8,20,0D,32,00,52,03,80,0A,
135621746,00000355,false,Rx,0,8,20,00,64,00,40,01,00,00,
135621991,00000356,false,Rx,0,8,5E,70,07,00,CE,00,00,00,
135622194,00000523,false,Rx,0,6,02,0D,00,04,63,6D,00,00,
135622408,00000524,false,Rx,0,6,03,0D,FF,FF,FF,E8,00,00,
135622589,0000039D,false,Rx,0,5,21,58,01,28,00,00,00,00,
135623857,0000035A,false,Rx,0,8,00,00,00,00,00,00,00,00,
135624091,0000035E,false,Rx,0,8,53,49,4D,50,20,42,4D,53,
135625239,00000112,false,Rx,0,8,F9,1F,3C,0B,40,01,65,47,
135625422,000001A1,false,Rx,0,5,7C,CB,00,00,8A,00,00,00,
135625845,00000370,false,Rx,0,8,53,49,4D,50,20,45,43,4F,
135627861,00000373,false,Rx,0,8,2A,0D,6E,0D,24,01,26,01,
135628064,00000521,false,Rx,0,6,00,06,00,00,02,AB,00,00,
135629880,00000379,false,Rx,0,8,D2,00,00,00,01,00,00,00,
135631885,00000372,false,Rx,0,8,0E,00,00,00,00,00,00,00,
135632833,000005BD,false,Rx,0,8,90,80,00,00,00,00,00,00,
135635239,00000112,false,Rx,0,8,FA,1F,3C,0B,40,01,65,47,
135645245,00000112,false,Rx,0,8,FA,1F,3C,0B,40,01,65,47,
135645434,000001A1,false,Rx,0,5,7C,CB,00,00,8A,00,00,00,
135647542,00000521,false,Rx,0,6,00,07,00,00,02,D9,00,00,
135655248,00000112,false,Rx,0,8,F9,1F,3C,0B,40,01,65,47,
135658552,00000522,false,Rx,0,6,01,0D,00,04,63,79,00,00,
135659496,00000100,false,Rx,0,8,01,00,00,00,8E,08,5C,12,
135659751,00000101,false,Rx,0,8,00,00,00,00,00,00,00,00,
135662546,0000039D,false,Rx,0,5,22,59,01,28,00,00,00,00,
135665257,00000112,false,Rx,0,8,F9,1F,3C,0B,40,01,65,47,
135665436,000001A1,false,Rx,0,5,7C,CB,00,00,8A,00,00,00,
135667543,00000521,false,Rx,0,6,00,08,00,00,02,C6,00,00,
135675259,00000112,false,Rx,0,8,F9,1F,3C,0B,40,01,65,47,
135681874,00000523,false,Rx,0,6,02,0E,00,04,63,94,00,00,
135682093,00000524,false,Rx,0,6,03,0E,00,00,00,1A,00,00,
135685265,00000112,false,Rx,0,8,F9,1F,3C,0B,40,01,65,47,
135685509,0000003C,false,Rx,0,8,FF,5F,00,00,00,00,FF,FF,
135685753,0000003F,false,Rx,0,8,00,00,00,40,00,40,64,6B,
135685977,0000012F,false,Rx,0,8,F5,28,86,1D,F1,35,30,80,
135686161,000001A1,false,Rx,0,5,7C,CB,00,00,8A,00,00,00,
135686405,000002F1,false,Rx,0,8,36,10,7D,00,00,00,00,A0,
135686649,000003E9,false,Rx,0,8,FE,FF,00,00,00,00,00,00,
135686874,00000431,false,Rx,0,8,CA,FF,0B,02,69,26,F3,4B,
135687885,00000521,false,Rx,0,6,00,09,00,00,02,C0,00,00,
135693393,1801D08F,true,Rx,0,8,00,8C,00,6D,03,00,00,44,
135695272,00000112,false,Rx,0,8,F9,1F,3C,0B,40,01,65,47,
135702532,0000039D,false,Rx,0,5,23,5A,01,28,00,00,00,00,
135705275,00000112,false,Rx,0,8,F9,1F,3C,0B,40,01,65,47,
135705452,000001A1,false,Rx,0,5,7C,CB,00,00,8A,00,00,00,
135707465,00000521,false,Rx,0,6,00,0A,00,00,02,D3,00,00,
135715275,00000112,false,Rx,0,8,F9,1F,3C,0B,40,01,65,47,
135718535,00000522,false,Rx,0,6,01,0E,00,04,63,87,00,00,
135725280,00000112,false,Rx,0,8,F9,1F,3C,0B,40,01,65,47,
135725468,000001A1,false,Rx,0,5,7C,CB,00,00,8A,00,00,00,
135727534,00000521,false,Rx,0,6,00,0B,00,00,02,D1,00,00,
135732989,00000337,false,Rx,0,2,FF,FF,00,00,00,00,00,00,
135733260,000003B4,false,Rx,0,8,00,FF,B0,F4,B8,FF,00,00,
135735286,00000112,false,Rx,0,8,F9,1F,3C,0B,40,01,65,47,
135741881,00000523,false,Rx,0,6,02,0F,00,04,63,89,00,00,
135742101,00000524,false,Rx,0,6,03,0F,00,00,00,1E,00,00,
135742566,0000039D,false,Rx,0,5,24,5B,01,28,00,00,00,00,
135745286,00000112,false,Rx,0,8,F9,1F,3C,0B,40,01,65,47,
135745467,000001A1,false,Rx,0,5,7C,CB,00,00,8A,00,00,00,
135747871,00000521,false,Rx,0,6,00,0C,00,00,02,AD,00,00,
135753115,00000272,false,Rx,0,8,8D,FB,71,11,FF,FF,FF,FF,
135755291,00000112,false,Rx,0,8,FA,1F,3C,0B,40,01,65,47,
135759499,00000100,false,Rx,0,8,01,00,00,00,8E,08,58,12,
135759752,00000101,false,Rx,0,8,00,00,00,00,00,00,00,00,
135765292,00000112,false,Rx,0,8,FA,1F,3C,0B,40,01,65,47,
135765470,000001A1,false,Rx,0,5,7C,CB,00,00,8A,00,00,00,
135767453,00000521,false,Rx,0,6,00,0D,00,00,02,D3,00,00,
135775293,00000112,false,Rx,0,8,F9,1F,3C,0B,40,01,65,47,
135778522,00000522,false,Rx,0,6,01,0F,00,04,63,77,00,00,
135782583,0000039D,false,Rx,0,5,25,5C,01,28,00,00,00,00,
135785294,00000112,false,Rx,0,8,F9,1F,3C,0B,40,01,65,47,
135785545,0000003C,false,Rx,0,8,FF,5F,00,00,00,00,FF,FF,
135785726,000001A1,false,Rx,0,5,7C,CB,00,00,8A,00,00,00,
135785982,000002FA,false,Rx,0,8,FD,FF,05,FF,FF,FF,FF,FF,
135786207,0000012F,false,Rx,0,8,F5,28,86,1D,F1,35,30,80,
135786451,000002F1,false,Rx,0,8,36,10,7D,00,00,00,00,A0,
135786697,0000003F,false,Rx,0,8,00,00,00,80,00,80,64,CE,
135786941,000003E9,false,Rx,0,8,FE,FF,00,00,00,00,00,00,
135787165,00000431,false,Rx,0,8,CA,FF,0B,02,69,26,F3,4B,
135787401,00000432,false,Rx,0,8,2C,E2,10,A3,40,FF,02,FF,
135787655,00000510,false,Rx,0,8,40,10,20,00,00,00,00,00,
135787889,0000051A,false,Rx,0,8,00,00,00,00,50,00,00,1A,
135788092,00000521,false,Rx,0,6,00,0E,00,00,02,D8,00,00,
135788338,00000540,false,Rx,0,8,00,00,00,00,FD,3C,FF,40,
135793374,1801D08F,true,Rx,0,8,00,8C,00,6E,03,00,00,44,
135795315,00000112,false,Rx,0,8,F9,1F,3C,0B,40,01,65,47,
135801881,00000523,false,Rx,0,6,02,00,00,04,63,87,00,00,
135802101,00000524,false,Rx,0,6,03,00,FF,FF,FF,EE,00,00,
135805323,00000112,false,Rx,0,8,F9,1F,3C,0B,40,01,65,47,
135805504,000001A1,false,Rx,0,5,7C,CB,00,00,8A,00,00,00,
135807866,00000521,false,Rx,0,6,00,0F,00,00,02,D3,00,00,
135815327,00000112,false,Rx,0,8,F9,1F,3C,0B,40,01,65,47,
135822576,0000039D,false,Rx,0,5,26,5D,01,28,00,00,00,00,
135825330,00000112,false,Rx,0,8,F9,1F,3C,0B,40,01,65,47,
135825508,000001A1,false,Rx,0,5,7C,CB,00,00,8A,00,00,00,
135827522,00000521,false,Rx,0,6,00,00,00,00,02,E3,00,00,
135835333,00000112,false,Rx,0,8,F9,1F,3C,0B,40,01,65,47,
135838529,00000522,false,Rx,0,6,01,00,00,04,63,56,00,00,
135845335,00000112,false,Rx,0,8,F9,1F,3B,0B,40,01,65,47,
135845513,000001A1,false,Rx,0,5,7C,CB,00,00,8A,00,00,00,
135847527,00000521,false,Rx,0,6,00,01,00,00,02,B8,00,00,
135855336,00000112,false,Rx,0,8,FA,1F,3B,0B,40,01,65,47,
135859493,00000100,false,Rx,0,8,01,00,00,00,8E,08,58,12,
135859745,00000101,false,Rx,0,8,00,00,00,00,00,00,00,00,
135861864,00000523,false,Rx,0,6,02,01,00,04,63,96,00,00,
135862088,00000524,false,Rx,0,6,03,01,FF,FF,FF,E4,00,00,
135862522,0000039D,false,Rx,0,5,27,5E,01,28,00,00,00,00,
135862767,0000035D,false,Rx,0,8,01,00,00,00,00,00,00,00,
135865333,00000112,false,Rx,0,8,FA,1F,3B,0B,40,01,65,47,
135865515,000001A1,false,Rx,0,5,7C,CB,00,00,8A,00,00,00,
135867857,00000521,false,Rx,0,6,00,02,00,00,02,E4,00,00,
135875340,00000112,false,Rx,0,8,F9,1F,3B,0B,40,01,65,47,
135885346,00000112,false,Rx,0,8,F9,1F,3B,0B,40,01,65,47,
135885597,0000003C,false,Rx,0,8,FF,5F,00,00,00,00,FF,FF,
135885842,0000003F,false,Rx,0,8,00,00,00,C0,00,C0,64,C0,
135886066,0000012F,false,Rx,0,8,F5,28,86,1D,F1,35,30,80,
135886250,000001A1,false,Rx,0,5,7C,CB,00,00,8A,00,00,00,
135886485,000002F1,false,Rx,0,8,36,10,7D,00,00,00,00,A0,
135886739,000003E9,false,Rx,0,8,FE,FF,00,00,00,00,00,00,
135886963,00000431,false,Rx,0,8,CA,FF,0B,02,69,26,F3,4B,
135887427,00000521,false,Rx,0,6,00,03,00,00,02,BD,00,00,
135893401,1801D08F,true,Rx,0,8,00,8C,00,6E,03,00,00,44,
135895362,00000112,false,Rx,0,8,F9,1F,3B,0B,40,01,65,47,
135898505,00000522,false,Rx,0,6,01,01,00,04,63,73,00,00,
135902524,0000039D,false,Rx,0,5,28,5F,01,28,00,00,00,00,
135905362,00000112,false,Rx,0,8,F9,1F,3C,0B,40,01,65,47,
135905539,000001A1,false,Rx,0,5,7C,CB,00,00,8A,00,00,00,
135907512,00000521,false,Rx,0,6,00,04,00,00,02,BA,00,00,
135915364,00000112,false,Rx,0,8,FA,1F,3C,0B,40,01,65,47,
135921855,00000523,false,Rx,0,6,02,02,00,04,63,8B,00,00,
135922073,00000524,false,Rx,0,6,03,02,00,00,00,1E,00,00,
135925368,00000112,false,Rx,0,8,FA,1F,3C,0B,40,01,65,47,
135925549,000001A1,false,Rx,0,5,7C,CB,00,00,8A,00,00,00,
135927848,00000521,false,Rx,0,6,00,05,00,00,02,C9,00,00,
135933441,000003B4,false,Rx,0,8,00,FF,B0,F4,B8,FF,00,00,
135935372,00000112,false,Rx,0,8,F9,1F,3C,0B,40,01,65,47,
135942559,0000039D,false,Rx,0,5,19,50,01,28,00,00,00,00,
135945374,00000112,false,Rx,0,8,F9,1F,3C,0B,40,01,65,47,
135945562,000001A1,false,Rx,0,5,7C,CB,00,00,8A,00,00,00,
135947430,00000521,false,Rx,0,6,00,06,00,00,02,C3,00,00,
135953465,00000272,false,Rx,0,8,03,FC,71,11,FF,FF,FF,FF,
135955374,00000112,false,Rx,0,8,F9,1F,3C,0B,40,01,65,47,
135958507,00000522,false,Rx,0,6,01,02,00,04,63,7D,00,00,
135959482,00000100,false,Rx,0,8,01,00,00,00,8E,08,58,12,
135959737,00000101,false,Rx,0,8,00,00,00,00,00,00,00,00,
135965380,00000112,false,Rx,0,8,F9,1F,3C,0B,40,01,65,47,
135965570,000001A1,false,Rx,0,5,7C,CB,00,00,8A,00,00,00,
135967500,00000521,false,Rx,0,6,00,07,00,00,02,D2,00,00,
135975383,00000112,false,Rx,0,8,F9,1F,3C,0B,40,01,65,47,
135981852,00000523,false,Rx,0,6,02,03,00,04,63,75,00,00,
135982071,00000524,false,Rx,0,6,03,03,FF,FF,FF,FC,00,00,
135982600,0000039D,false,Rx,0,5,1A,51,01,28,00,00,00,00,
135985392,00000112,false,Rx,0,8,F9,1F,3C,0B,40,01,65,47,
135985575,000001A1,false,Rx,0,5,7C,CB,00,00,8A,00,00,00,
135985819,000002FA,false,Rx,0,8,FD,FF,05,FF,FF,FF,FF,FF,
135986021,00000328,false,Rx,0,6,D4,00,00,00,87,1E,00,00,
135986266,000002FC,false,Rx,0,8,01,00,F3,FF,FF,FF,FF,FF,
135986512,000002A0,false,Rx,0,8,F8,88,F8,0F,FF,FF,FF,FF,
135986756,000003A0,false,Rx,0,8,FF,FF,C0,FF,FF,FF,FF,FC,
135987011,0000003C,false,Rx,0,8,FF,5F,00,00,00,00,FF,FF,
135987153,000003E8,false,Rx,0,2,F1,FF,00,00,00,00,00,00,
135987396,000003E9,false,Rx,0,8,FE,FF,00,00,00,00,00,00,
135987620,0000012F,false,Rx,0,8,F5,28,86,1D,F1,35,30,80,
135987865,000002F1,false,Rx,0,8,36,10,7D,00,00,00,00,A0,
135988111,0000003F,false,Rx,0,8,00,00,00,00,00,00,64,65,
135988346,000003F9,false,Rx,0,8,C0,F9,80,E0,43,3C,F3,FF,
135988570,00000431,false,Rx,0,8,CA,FF,0B,02,69,26,F3,4B,
135988805,00000432,false,Rx,0,8,2C,E2,10,A3,40,FF,02,FF,
135989059,00000510,false,Rx,0,8,40,10,20,00,00,00,00,00,
135989305,0000051A,false,Rx,0,8,00,00,00,00,50,00,00,1A,
135989509,00000521,false,Rx,0,6,00,08,00,00,02,D7,00,00,
135989753,00000540,false,Rx,0,8,00,00,00,00,FD,3C,FF,40,
135993376,1801D08F,true,Rx,0,8,00,8C,00,6E,03,00,00,44,
135995421,00000112,false,Rx,0,8,F9,1F,3C,0B,40,01,65,47,
136005427,00000112,false,Rx,0,8,F9,1F,3C,0B,40,01,65,47,
136005606,000001A1,false,Rx,0,5,7C,CB,00,00,8A,00,00,00,
136007503,00000521,false,Rx,0,6,00,09,00,00,02,D0,00,00,
136015428,00000112,false,Rx,0,8,F9,1F,3C,0B,40,01,65,47,
136018498,00000522,false,Rx,0,6,01,03,00,04,63,79,00,00,
136022531,0000039D,false,Rx,0,5,1B,52,01,28,00,00,00,00,
136025430,00000112,false,Rx,0,8,F9,1F,3C,0B,40,01,65,47,
136025609,000001A1,false,Rx,0,5,7C,CB,00,00,8A,00,00,00,
136027497,00000521,false,Rx,0,6,00,0A,00,00,02,E4,00,00,
136035431,00000112,false,Rx,0,8,F9,1F,3C,0B,40,01,65,47,
136041828,00000523,false,Rx,0,6,02,04,00,04,63,9A,00,00,
136042057,00000524,false,Rx,0,6,03,04,00,00,00,0C,00,00,
136045437,00000112,false,Rx,0,8,F9,1F,3C,0B,40,01,65,47,
136045619,000001A1,false,Rx,0,5,7C,CB,00,00,8A,00,00,00,
136047834,00000521,false,Rx,0,6,00,0B,00,00,02,BF,00,00,
136055436,00000112,false,Rx,0,8,F9,1F,3C,0B,40,01,65,47,
136059476,00000100,false,Rx,0,8,01,00,00,00,8E,08,52,12,
136059727,00000101,false,Rx,0,8,00,00,00,00,00,00,00,00,
136062519,0000039D,false,Rx,0,5,1C,53,01,28,00,00,00,00,
136065436,00000112,false,Rx,0,8,F9,1F,3C,0B,40,01,65,47,
136065624,000001A1,false,Rx,0,5,7C,CB,00,00,8A,00,00,00,
136067402,00000521,false,Rx,0,6,00,0C,00,00,02,B8,00,00,
136075446,00000112,false,Rx,0,8,FA,1F,3C,0B,40,01,65,47,
136078484,00000522,false,Rx,0,6,01,04,00,04,63,60,00,00,
136085441,00000112,false,Rx,0,8,FA,1F,3B,0B,40,01,65,47,
136085691,0000003C,false,Rx,0,8,FF,5F,00,00,00,00,FF,FF,
136085936,0000003F,false,Rx,0,8,00,00,00,40,00,40,64,6B,
136086161,0000012F,false,Rx,0,8,F5,28,86,1D,F1,35,30,80,
136086343,000001A1,false,Rx,0,5,7C,CB,00,00,8A,00,00,00,
136086587,000002F1,false,Rx,0,8,36,10,7D,00,00,00,00,A0,
136086831,000003E9,false,Rx,0,8,FE,FF,00,00,00,00,00,00,
136087056,00000431,false,Rx,0,8,CA,FF,0B,02,69,26,F3,4B,
136087509,00000521,false,Rx,0,6,00,0D,00,00,02,D6,00,00,
136093387,1801D08F,true,Rx,0,8,00,8C,00,6E,03,00,00,44,
136095455,00000112,false,Rx,0,8,F9,1F,3B,0B,40,01,65,47,
136101828,00000523,false,Rx,0,6,02,05,00,04,63,6F,00,00,
136102047,00000524,false,Rx,0,6,03,05,00,00,00,0A,00,00,
136102555,0000039D,false,Rx,0,5,1D,54,01,28,00,00,00,00,
136105463,00000112,false,Rx,0,8,F9,1F,3B,0B,40,01,65,47,
136105645,000001A1,false,Rx,0,5,7C,CB,00,00,8A,00,00,00,
136107807,00000521,false,Rx,0,6,00,0E,00,00,02,AA,00,00,
136115460,00000112,false,Rx,0,8,FA,1F,3B,0B,40,01,65,47,
136125467,00000112,false,Rx,0,8,FA,1F,3B,0B,40,01,65,47,
136125645,000001A1,false,Rx,0,5,7C,CB,00,00,8A,00,00,00,
136127391,00000521,false,Rx,0,6,00,0F,00,00,02,D4,00,00,
136133788,000003B4,false,Rx,0,8,00,FF,B0,F4,B8,FF,00,00,
136135467,00000112,false,Rx,0,8,F9,1F,3B,0B,40,01,65,47,
136138474,00000522,false,Rx,0,6,01,05,00,04,63,6F,00,00,
136142536,0000039D,false,Rx,0,5,1E,55,01,28,00,00,00,00,
136145468,00000112,false,Rx,0,8,F9,1F,3B,0B,40,01,65,47,
136145656,000001A1,false,Rx,0,5,7C,CB,00,00,8A,00,00,00,
136147475,00000521,false,Rx,0,6,00,00,00,00,02,C9,00,00,
136153818,00000272,false,Rx,0,8,5E,FD,71,11,FF,FF,FF,FF,
136155476,00000112,false,Rx,0,8,F9,1F,3B,0B,40,01,65,47,
136159452,00000100,false,Rx,0,8,01,00,00,00,8E,08,58,12,
136159702,00000101,false,Rx,0,8,00,00,00,00,00,00,00,00,
136161822,00000523,false,Rx,0,6,02,06,00,04,63,7F,00,00,
136162045,00000524,false,Rx,0,6,03,06,FF,FF,FF,DB,00,00,
136165479,00000112,false,Rx,0,8,F9,1F,3B,0B,40,01,65,47,
136165657,000001A1,false,Rx,0,5,7C,CB,00,00,8A,00,00,00,
136167807,00000521,false,Rx,0,6,00,01,00,00,02,E8,00,00,
136175481,00000112,false,Rx,0,8,F9,1F,3B,0B,40,01,65,47,
136182583,0000039D,false,Rx,0,5,1F,56,01,28,00,00,00,00,
136185485,00000112,false,Rx,0,8,F9,1F,3B,0B,40,01,65,47,
136185735,0000003C,false,Rx,0,8,FF,5F,00,00,00,00,FF,FF,
136185917,000001A1,false,Rx,0,5,7C,CB,00,00,8A,00,00,00,
136186163,000002FA,false,Rx,0,8,FD,FF,05,FF,FF,FF,FF,FF,
136186386,0000012F,false,Rx,0,8,F5,28,86,1D,F1,35,30,80,
136186631,000002F1,false,Rx,0,8,36,10,7D,00,00,00,00,A0,
136186876,0000003F,false,Rx,0,8,00,00,00,80,00,80,64,CE,
136187121,000003E9,false,Rx,0,8,FE,FF,00,00,00,00,00,00,
136187356,00000431,false,Rx,0,8,CA,FF,0B,02,69,26,F3,4B,
136187581,00000432,false,Rx,0,8,2C,E2,10,A3,40,FF,02,FF,
136187836,00000510,false,Rx,0,8,40,10,20,00,00,00,00,00,
136188080,0000051A,false,Rx,0,8,00,00,00,00,50,00,00,1A,
136188285,00000521,false,Rx,0,6,00,02,00,00,02,E1,00,00,
136188529,00000540,false,Rx,0,8,00,00,00,00,FD,3C,FF,40,
136192635,0000035D,false,Rx,0,8,02,00,88,08,00,00,20,F0,
136193391,1801D08F,true,Rx,0,8,00,8C,00,6E,03,00,00,44,
136195511,00000112,false,Rx,0,8,F9,1F,3B,0B,40,01,65,47,
136198470,00000522,false,Rx,0,6,01,06,00,04,63,58,00,00,
136205507,00000112,false,Rx,0,8,F9,1F,3B,0B,40,01,65,47,
136205684,000001A1,false,Rx,0,5,7C,CB,00,00,8A,00,00,00,
136207388,00000521,false,Rx,0,6,00,03,00,00,02,D2,00,00,
136215515,00000112,false,Rx,0,8,F9,1F,3B,0B,40,01,65,47,
136221804,00000523,false,Rx,0,6,02,07,00,04,63,73,00,00,
136222023,00000524,false,Rx,0,6,03,07,00,00,00,1A,00,00,
136222501,0000039D,false,Rx,0,5,20,57,01,28,00,00,00,00,
136225514,00000112,false,Rx,0,8,F9,1F,3B,0B,40,01,65,47,
136225696,000001A1,false,Rx,0,5,7C,CB,00,00,8A,00,00,00,
136227798,00000521,false,Rx,0,6,00,04,00,00,02,C6,00,00,
136235522,00000112,false,Rx,0,8,F9,1F,3B,0B,40,01,65,47,
136245517,00000112,false,Rx,0,8,F9,1F,3B,0B,40,01,65,47,
136245705,000001A1,false,Rx,0,5,7C,CB,00,00,8A,00,00,00,
136247377,00000521,false,Rx,0,6,00,05,00,00,02,DA,00,00,
136252792,00000351,false,Rx,0,8,20,0D,32,00,50,03,80,0A,
136253033,00000355,false,Rx,0,8,20,00,64,00,40,01,00,00,
136253278,00000356,false,Rx,0,8,5E,70,07,00,CE,00,00,00,
136255138,0000035A,false,Rx,0,8,00,00,00,00,00,00,00,00,
136255372,0000035E,false,Rx,0,8,53,49,4D,50,20,42,4D,53,
136255596,00000112,false,Rx,0,8,F9,1F,3B,0B,40,01,65,47,
136257121,00000370,false,Rx,0,8,53,49,4D,50,20,45,43,4F,
136258459,00000522,false,Rx,0,6,01,07,00,04,63,2D,00,00,
136259142,00000373,false,Rx,0,8,29,0D,6E,0D,24,01,26,01,
136259439,00000100,false,Rx,0,8,01,00,00,00,8E,08,52,12,
136259695,00000101,false,Rx,0,8,00,00,00,00,00,00,00,00,
136261158,00000379,false,Rx,0,8,D2,00,00,00,01,00,00,00,
136262505,0000039D,false,Rx,0,5,21,58,01,28,00,00,00,00,
136262738,0000032D,false,Rx,0,8,0A,01,00,00,00,00,01,12,
136263163,00000372,false,Rx,0,8,0E,00,00,00,00,00,00,00,
136265523,00000112,false,Rx,0,8,F9,1F,3B,0B,40,01,65,47,
136265705,000001A1,false,Rx,0,5,7C,CB,00,00,8A,00,00,00,
136267449,00000521,false,Rx,0,6,00,06,00,00,02,C9,00,00,
136275534,00000112,false,Rx,0,8,F9,1F,3B,0B,40,01,65,47,
136281791,00000523,false,Rx,0,6,02,08,00,04,63,87,00,00,
136282011,00000524,false,Rx,0,6,03,08,00,00,00,06,00,00,
136285536,00000112,false,Rx,0,8,F9,1F,3B,0B,40,01,65,47,
136285781,0000003C,false,Rx,0,8,FF,5F,00,00,00,00,FF,FF,
136286024,0000003F,false,Rx,0,8,00,00,00,C0,00,C0,64,C0,
136286250,0000012F,false,Rx,0,8,F5,28,86,1D,F1,35,30,80,
136286431,000001A1,false,Rx,0,5,7C,CB,00,00,8A,00,00,00,
136286676,000002F1,false,Rx,0,8,36,10,7D,00,00,00,00,A0,
136286921,000003E9,false,Rx,0,8,FE,FF,00,00,00,00,00,00,
136287156,00000431,false,Rx,0,8,CA,FF,0B,02,69,26,F3,4B,
136287778,00000521,false,Rx,0,6,00,07,00,00,02,D5,00,00,
136293361,1801D08F,true,Rx,0,8,00,8C,00,6F,03,00,00,44,
136295545,00000112,false,Rx,0,8,F9,1F,3B,0B,40,01,65,47,
136302543,0000039D,false,Rx,0,5,22,59,01,28,00,00,00,00,
136305551,00000112,false,Rx,0,8,F9,1F,3B,0B,40,01,65,47,
136305728,000001A1,false,Rx,0,5,7C,CB,00,00,8A,00,00,00,
136307370,00000521,false,Rx,0,6,00,08,00,00,02,BA,00,00,
136315549,00000112,false,Rx,0,8,FA,1F,3B,0B,40,01,65,47,
136318441,00000522,false,Rx,0,6,01,08,00,04,63,73,00,00,
136325553,00000112,false,Rx,0,8,FA,1F,3C,0B,40,01,65,47,
136325741,000001A1,false,Rx,0,5,7C,CB,00,00,8A,00,00,00,
136327436,00000521,false,Rx,0,6,00,09,00,00,02,E9,00,00,
136334137,000003B4,false,Rx,0,8,00,FF,B0,F4,B8,FF,00,00,
136335563,00000112,false,Rx,0,8,F9,1F,3C,0B,40,01,65,47,
136341775,00000523,false,Rx,0,6,02,09,00,04,63,87,00,00,
136341995,00000524,false,Rx,0,6,03,09,FF,FF,FF,EC,00,00,
136342554,0000039D,false,Rx,0,5,23,5A,01,28,00,00,00,00,
136345567,00000112,false,Rx,0,8,F9,1F,3C,0B,40,01,65,47,
136345740,000001A1,false,Rx,0,5,7C,CB,00,00,8A,00,00,00,
136347766,00000521,false,Rx,0,6,00,0A,00,00,02,CB,00,00,
136354162,00000272,false,Rx,0,8,B9,FE,71,11,FF,FF,FF,FF,
136355567,00000112,false,Rx,0,8,F9,1F,3C,0B,40,01,65,47,
136359437,00000100,false,Rx,0,8,01,00,00,00,8E,08,52,12,
136359689,00000101,false,Rx,0,8,00,00,00,00,00,00,00,00,
136365566,00000112,false,Rx,0,8,F9,1F,3C,0B,40,01,65,47,
136365756,000001A1,false,Rx,0,5,7C,CB,00,00,8A,00,00,00,
136367428,00000521,false,Rx,0,6,00,0B,00,00,02,E2,00,00,
136375575,00000112,false,Rx,0,8,F9,1F,3C,0B,40,01,65,47,
136378351,00000522,false,Rx,0,6,01,09,00,04,63,85,00,00,
136382540,0000039D,false,Rx,0,5,24,5B,01,28,00,00,00,00,
136385577,00000112,false,Rx,0,8,F9,1F,3C,0B,40,01,65,47,
136385829,0000003C,false,Rx,0,8,FF,5F,00,00,00,00,FF,FF,
136386011,000001A1,false,Rx,0,5,7C,CB,00,00,8A,00,00,00,
136386256,000002FA,false,Rx,0,8,FD,FF,05,FF,FF,FF,FF,FF,
136386480,0000012F,false,Rx,0,8,F5,28,86,1D,F1,35,30,80,
136386725,000002F1,false,Rx,0,8,36,10,7D,00,00,00,00,A0,
136386969,0000003F,false,Rx,0,8,00,00,00,00,00,00,64,65,
136387216,000003E9,false,Rx,0,8,FE,FF,00,00,00,00,00,00,
136387450,00000431,false,Rx,0,8,CA,FF,0B,02,69,26,F3,4B,
136387684,00000432,false,Rx,0,8,2C,E2,10,A3,40,FF,02,FF,
136387928,00000510,false,Rx,0,8,40,10,20,00,00,00,00,00,
136388175,0000051A,false,Rx,0,8,00,00,00,00,50,00,00,1A,
136388378,00000521,false,Rx,0,6,00,0C,00,00,02,B5,00,00,
136388622,00000540,false,Rx,0,8,00,00,00,00,FD,3C,FF,40,
136393364,1801D08F,true,Rx,0,8,00,8C,00,6E,03,00,00,44,
136395599,00000112,false,Rx,0,8,FA,1F,3C,0B,40,01,65,47,
136401761,00000523,false,Rx,0,6,02,0A,00,04,63,9E,00,00,
136401981,00000524,false,Rx,0,6,03,0A,00,00,00,0A,00,00,
136405602,00000112,false,Rx,0,8,FA,1F,3C,0B,40,01,65,47,
136405785,000001A1,false,Rx,0,5,7C,CB,00,00,8A,00,00,00,
136407759,00000521,false,Rx,0,6,00,0D,00,00,02,D7,00,00,
136415601,00000112,false,Rx,0,8,F9,1F,3C,0B,40,01,65,47,
136422501,0000039D,false,Rx,0,5,25,5C,01,28,00,00,00,00,
136425603,00000112,false,Rx,0,8,F9,1F,3C,0B,40,01,65,47,
136425791,000001A1,false,Rx,0,5,7C,CB,00,00,8A,00,00,00,
136427421,00000521,false,Rx,0,6,00,0E,00,00,02,E1,00,00,
136435610,00000112,false,Rx,0,8,F9,1F,3C,0B,40,01,65,47,
136438416,00000522,false,Rx,0,6,01,0A,00,04,63,3F,00,00,
136445613,00000112,false,Rx,0,8,F9,1F,3B,0B,40,01,65,47,
136445791,000001A1,false,Rx,0,5,7C,CB,00,00,8A,00,00,00,
136447421,00000521,false,Rx,0,6,00,0F,00,00,02,DA,00,00,
136455610,00000112,false,Rx,0,8,F9,1F,3B,0B,40,01,65,47,
136459441,00000100,false,Rx,0,8,01,00,00,00,8E,08,52,12,
136459691,00000101,false,Rx,0,8,00,00,00,00,00,00,00,00,
136461760,00000523,false,Rx,0,6,02,0B,00,04,63,7B,00,00,
136461983,00000524,false,Rx,0,6,03,0B,FF,FF,FF,FE,00,00,
136462544,0000039D,false,Rx,0,5,26,5D,01,28,00,00,00,00,
136465613,00000112,false,Rx,0,8,F9,1F,3B,0B,40,01,65,47,
136465801,000001A1,false,Rx,0,5,7C,CB,00,00,8A,00,00,00,
136467751,00000521,false,Rx,0,6,00,00,00,00,02,C4,00,00,
136475615,00000112,false,Rx,0,8,F9,1F,3B,0B,40,01,65,47,
136485621,00000112,false,Rx,0,8,F9,1F,3B,0B,40,01,65,47,
136485871,0000003C,false,Rx,0,8,FF,5F,00,00,00,00,FF,FF,
136486116,0000003F,false,Rx,0,8,00,00,00,40,00,40,64,6B,
136486341,0000012F,false,Rx,0,8,F5,28,86,1D,F1,35,30,80,
136486523,000001A1,false,Rx,0,5,7C,CB,00,00,8A,00,00,00,
136486767,000002F1,false,Rx,0,8,36,10,7D,00,00,00,00,A0,
136487011,000003E9,false,Rx,0,8,FE,FF,00,00,00,00,00,00,
136487237,00000431,false,Rx,0,8,CA,FF,0B,02,69,26,F3,4B,
136487450,00000521,false,Rx,0,6,00,01,00,00,02,D2,00,00,
136493372,1801D08F,true,Rx,0,8,00,8C,00,6E,03,00,00,44,
136495630,00000112,false,Rx,0,8,F9,1F,3B,0B,40,01,65,47,
136498330,00000522,false,Rx,0,6,01,0B,00,04,63,4E,00,00,
136502519,0000039D,false,Rx,0,5,27,5E,01,28,00,00,00,00,
136505641,00000112,false,Rx,0,8,F9,1F,3B,0B,40,01,65,47,
136505818,000001A1,false,Rx,0,5,7C,CB,00,00,8A,00,00,00,
136507417,00000521,false,Rx,0,6,00,02,00,00,02,E3,00,00,
136515639,00000112,false,Rx,0,8,F9,1F,3B,0B,40,01,65,47,
136521749,00000523,false,Rx,0,6,02,0C,00,04,63,9C,00,00,
136521968,00000524,false,Rx,0,6,03,0C,FF,FF,FF,F0,00,00,
136522612,0000035D,false,Rx,0,8,00,00,00,00,00,00,00,00,
136525647,00000112,false,Rx,0,8,F9,1F,3B,0B,40,01,65,47,
136525824,000001A1,false,Rx,0,5,7C,CB,00,00,8A,00,00,00,
136527738,00000521,false,Rx,0,6,00,03,00,00,02,EE,00,00,
136534537,000003B4,false,Rx,0,8,00,FF,B0,F4,B8,FF,00,00,
136535649,00000112,false,Rx,0,8,F9,1F,3B,0B,40,01,65,47,
136542546,0000039D,false,Rx,0,5,28,5F,01,28,00,00,00,00,
136545646,00000112,false,Rx,0,8,F9,1F,3B,0B,40,01,65,47,
136545834,000001A1,false,Rx,0,5,7C,CB,00,00,8A,00,00,00,
136547391,00000521,false,Rx,0,6,00,04,00,00,02,DE,00,00,
136554556,00000272,false,Rx,0,8,B8,F0,71,11,FF,FF,FF,FF,
136555648,00000112,false,Rx,0,8,F9,1F,3B,0B,40,01,65,47,
136558399,00000522,false,Rx,0,6,01,0C,00,04,63,5C,00,00,
136559448,00000100,false,Rx,0,8,01,00,00,00,8E,08,52,12,
136559703,00000101,false,Rx,0,8,00,00,00,00,00,00,00,00,
136565651,00000112,false,Rx,0,8,F9,1F,3B,0B,40,01,65,47,
136565840,000001A1,false,Rx,0,5,7C,CB,00,00,8A,00,00,00,
136567396,00000521,false,Rx,0,6,00,05,00,00,02,D9,00,00,
136575659,00000112,false,Rx,0,8,F9,1F,3B,0B,40,01,65,47,
136581739,00000523,false,Rx,0,6,02,0D,00,04,63,8B,00,00,
136581958,00000524,false,Rx,0,6,03,0D,FF,FF,FF,EE,00,00,
136582518,0000039D,false,Rx,0,5,19,50,01,28,00,00,00,00,
136585667,00000112,false,Rx,0,8,F9,1F,3B,0B,40,01,65,47,
136585907,0000003C,false,Rx,0,8,FF,5F,00,00,00,00,FF,FF,
136586100,000001A1,false,Rx,0,5,7C,CB,00,00,8A,00,00,00,
136586345,000002FA,false,Rx,0,8,FD,FF,05,FF,FF,FF,FF,FF,
136586569,0000012F,false,Rx,0,8,F5,28,86,1D,F1,35,30,80,
136586813,000002F1,false,Rx,0,8,36,10,7D,00,00,00,00,A0,
136587059,0000003F,false,Rx,0,8,00,00,00,80,00,80,64,CE,
136587304,000003E9,false,Rx,0,8,FE,FF,00,00,00,00,00,00,
136587527,00000431,false,Rx,0,8,CA,FF,0B,02,69,26,F3,4B,
136587763,00000432,false,Rx,0,8,2C,E2,10,A3,40,FF,02,FF,
136588009,00000510,false,Rx,0,8,40,10,20,00,00,00,00,00,
136588255,0000051A,false,Rx,0,8,00,00,00,00,50,00,00,1A,
136588459,00000521,false,Rx,0,6,00,06,00,00,02,CD,00,00,
136588703,00000540,false,Rx,0,8,00,00,00,00,FD,3C,FF,40,
136593356,1801D08F,true,Rx,0,8,00,8C,00,6E,03,00,00,44,
136595687,00000112,false,Rx,0,8,F9,1F,3B,0B,40,01,65,47,
136605681,00000112,false,Rx,0,8,F9,1F,3B,0B,40,01,65,47,
136605869,000001A1,false,Rx,0,5,7C,CB,00,00,8A,00,00,00,
136607311,00000521,false,Rx,0,6,00,07,00,00,02,C2,00,00,
136615689,00000112,false,Rx,0,8,F9,1F,3B,0B,40,01,65,47,
136618390,00000522,false,Rx,0,6,01,0D,00,04,63,71,00,00,
136622483,0000039D,false,Rx,0,5,1A,51,01,28,00,00,00,00,
136625689,00000112,false,Rx,0,8,F9,1F,3C,0B,40,01,65,47,
136625877,000001A1,false,Rx,0,5,7C,CB,00,00,8A,00,00,00,
136627318,00000521,false,Rx,0,6,00,08,00,00,02,D3,00,00,
136635697,00000112,false,Rx,0,8,F9,1F,3C,0B,40,01,65,47,
136641734,00000523,false,Rx,0,6,02,0E,00,04,63,56,00,00,
136641953,00000524,false,Rx,0,6,03,0E,00,00,00,12,00,00,
136642670,000005BD,false,Rx,0,8,88,80,00,00,00,00,00,00,
136645694,00000112,false,Rx,0,8,F9,1F,3C,0B,40,01,65,47,
136645882,000001A1,false,Rx,0,5,7C,CB,00,00,8A,00,00,00,
136647723,00000521,false,Rx,0,6,00,09,00,00,02,CA,00,00,
136655701,00000112,false,Rx,0,8,F9,1F,3C,0B,40,01,65,47,
136659447,00000100,false,Rx,0,8,01,00,00,00,8E,08,52,12,
136659698,00000101,false,Rx,0,8,00,00,00,00,00,00,00,00,
136662521,0000039D,false,Rx,0,5,1B,52,01,28,00,00,00,00,
136665703,00000112,false,Rx,0,8,F9,1F,3C,0B,40,01,65,47,
136665890,000001A1,false,Rx,0,5,7C,CB,00,00,8A,00,00,00,
136667301,00000521,false,Rx,0,6,00,0A,00,00,02,CA,00,00,
136675712,00000112,false,Rx,0,8,F9,1F,3C,0B,40,01,65,47,
136678382,00000522,false,Rx,0,6,01,0E,00,04,63,77,00,00,
136685717,00000112,false,Rx,0,8,F9,1F,3C,0B,40,01,65,47,
136685958,0000003C,false,Rx,0,8,FF,5F,00,00,00,00,FF,FF,
136686204,0000003F,false,Rx,0,8,00,00,00,C0,00,C0,64,C0,
136686427,0000012F,false,Rx,0,8,F5,28,86,1D,F1,35,30,80,
136686619,000001A1,false,Rx,0,5,7C,CB,00,00,8A,00,00,00,
136686854,000002F1,false,Rx,0,8,36,10,7D,00,00,00,00,A0,
136687109,000003E9,false,Rx,0,8,FE,FF,00,00,00,00,00,00,
136687333,00000431,false,Rx,0,8,CA,FF,0B,02,69,26,F3,4B,
136687537,00000521,false,Rx,0,6,00,0B,00,00,02,BF,00,00,
136693374,1801D08F,true,Rx,0,8,00,8C,00,6E,03,00,00,44,
136695726,00000112,false,Rx,0,8,F9,1F,3C,0B,40,01,65,47,
136701720,00000523,false,Rx,0,6,02,0F,00,04,63,79,00,00,
136701938,00000524,false,Rx,0,6,03,0F,00,00,00,0E,00,00,
136702541,0000039D,false,Rx,0,5,1C,53,01,28,00,00,00,00,
136705733,00000112,false,Rx,0,8,F9,1F,3C,0B,40,01,65,47,
136705911,000001A1,false,Rx,0,5,7C,CB,00,00,8A,00,00,00,
136707709,00000521,false,Rx,0,6,00,0C,00,00,02,CB,00,00,
136715731,00000112,false,Rx,0,8,F9,1F,3C,0B,40,01,65,47,
136725736,00000112,false,Rx,0,8,F9,1F,3C,0B,40,01,65,47,
136725915,000001A1,false,Rx,0,5,7C,CB,00,00,8A,00,00,00,
136727292,00000521,false,Rx,0,6,00,0D,00,00,02,DC,00,00,
136734783,00000337,false,Rx,0,2,FF,FF,00,00,00,00,00,00,
136735064,000003B4,false,Rx,0,8,00,FF,B0,F4,B8,FF,00,00,
136735739,00000112,false,Rx,0,8,F9,1F,3C,0B,40,01,65,47,
136738377,00000522,false,Rx,0,6,01,0F,00,04,63,81,00,00,
136742500,0000039D,false,Rx,0,5,1D,54,01,28,00,00,00,00,
136745738,00000112,false,Rx,0,8,F9,1F,3C,0B,40,01,65,47,
136745916,000001A1,false,Rx,0,5,7C,CB,00,00,8A,00,00,00,
136747294,00000521,false,Rx,0,6,00,0E,00,00,02,CB,00,00,
136754923,00000272,false,Rx,0,8,E5,F1,71,11,FF,FF,FF,FF,
136755741,00000112,false,Rx,0,8,F9,1F,3C,0B,40,01,65,47,
136759449,00000100,false,Rx,0,8,01,00,00,00,8E,08,58,12,
136759701,00000101,false,Rx,0,8,00,00,00,00,00,00,00,00,
136761725,00000523,false,Rx,0,6,02,00,00,04,63,8B,00,00,
136761938,00000524,false,Rx,0,6,03,00,FF,FF,FF,FA,00,00,
136765751,00000112,false,Rx,0,8,F9,1F,3C,0B,40,01,65,47,
136765930,000001A1,false,Rx,0,5,7C,CB,00,00,8A,00,00,00,
136767706,00000521,false,Rx,0,6,00,0F,00,00,02,C3,00,00,
136775748,00000112,false,Rx,0,8,F9,1F,3C,0B,40,01,65,47,
136782525,0000039D,false,Rx,0,5,1E,55,01,28,00,00,00,00,
136785752,00000112,false,Rx,0,8,F9,1F,3C,0B,40,01,65,47,
136786004,0000003C,false,Rx,0,8,FF,5F,00,00,00,00,FF,FF,
136786187,000001A1,false,Rx,0,5,7C,CB,00,00,8A,00,00,00,
136786430,000002FA,false,Rx,0,8,FD,FF,05,FF,FF,FF,FF,FF,
136786655,0000012F,false,Rx,0,8,F5,28,86,1D,F1,35,30,80,
136786899,000002F1,false,Rx,0,8,36,10,7D,00,00,00,00,A0,
136787145,0000003F,false,Rx,0,8,00,00,00,00,00,00,64,65,
136787401,000003E9,false,Rx,0,8,FE,FF,00,00,00,00,00,00,
136787624,00000431,false,Rx,0,8,CA,FF,0B,02,69,26,F3,4B,
136787858,00000432,false,Rx,0,8,2C,E2,10,A3,40,FF,02,FF,
136788104,00000510,false,Rx,0,8,40,10,20,00,00,00,00,00,
136788349,0000051A,false,Rx,0,8,00,00,00,00,50,00,00,1A,
136788552,00000521,false,Rx,0,6,00,00,00,00,02,D5,00,00,
136788796,00000540,false,Rx,0,8,00,00,00,00,FD,3C,FF,40,
136793357,1801D08F,true,Rx,0,8,00,8C,00,6E,03,00,00,44,
136795774,00000112,false,Rx,0,8,F9,1F,3C,0B,40,01,65,47,
136798285,00000522,false,Rx,0,6,01,00,00,04,63,5E,00,00,
136805778,00000112,false,Rx,0,8,F9,1F,3B,0B,40,01,65,47,
136805955,000001A1,false,Rx,0,5,7C,CB,00,00,8A,00,00,00,
136807376,00000521,false,Rx,0,6,00,01,00,00,02,D5,00,00,
136815778,00000112,false,Rx,0,8,F9,1F,3B,0B,40,01,65,47,
136821709,00000523,false,Rx,0,6,02,01,00,04,63,8D,00,00,
136821929,00000524,false,Rx,0,6,03,01,FF,FF,FF,DE,00,00,
136822530,0000039D,false,Rx,0,5,1F,56,01,28,00,00,00,00,
136825774,00000112,false,Rx,0,8,F9,1F,3B,0B,40,01,65,47,
136825962,000001A1,false,Rx,0,5,7C,CB,00,00,8A,00,00,00,
136827708,00000521,false,Rx,0,6,00,02,00,00,02,CC,00,00,
136835784,00000112,false,Rx,0,8,F9,1F,3B,0B,40,01,65,47,
136845789,00000112,false,Rx,0,8,F9,1F,3B,0B,40,01,65,47,
136845967,000001A1,false,Rx,0,5,7C,CB,00,00,8A,00,00,00,
136847367,00000521,false,Rx,0,6,00,03,00,00,02,C8,00,00,
136852588,0000035D,false,Rx,0,8,01,00,00,00,00,00,00,00,
136855796,00000112,false,Rx,0,8,F9,1F,3B,0B,40,01,65,47,
136858350,00000522,false,Rx,0,6,01,01,00,04,63,85,00,00,
136859440,00000100,false,Rx,0,8,01,00,00,00,8E,08,52,12,
136859686,00000101,false,Rx,0,8,00,00,00,00,00,00,00,00,
136862512,0000039D,false,Rx,0,5,20,57,01,28,00,00,00,00,
136865794,00000112,false,Rx,0,8,F9,1F,3C,0B,40,01,65,47,
136865982,000001A1,false,Rx,0,5,7C,CB,00,00,8A,00,00,00,
136867277,00000521,false,Rx,0,6,00,04,00,00,02,D2,00,00,
136875802,00000112,false,Rx,0,8,F9,1F,3C,0B,40,01,65,47,
136881693,00000523,false,Rx,0,6,02,02,00,04,63,96,00,00,
136881912,00000524,false,Rx,0,6,03,02,00,00,00,18,00,00,
136883647,00000351,false,Rx,0,8,20,0D,32,00,52,03,80,0A,
136883890,00000355,false,Rx,0,8,20,00,64,00,40,01,00,00,
136884136,00000356,false,Rx,0,8,5F,70,07,00,CE,00,00,00,
136885795,00000112,false,Rx,0,8,F9,1F,3C,0B,40,01,65,47,
136886050,0000003C,false,Rx,0,8,FF,5F,00,00,00,00,FF,FF,
136886296,0000003F,false,Rx,0,8,00,00,00,40,00,40,64,6B,
136886520,0000012F,false,Rx,0,8,F5,28,86,1D,F1,35,30,80,
136886702,000001A1,false,Rx,0,5,7C,CB,00,00,8A,00,00,00,
136886946,000002F1,false,Rx,0,8,36,10,7D,00,00,00,00,A0,
136887194,0000035A,false,Rx,0,8,00,00,00,00,00,00,00,00,
136887417,0000035E,false,Rx,0,8,53,49,4D,50,20,42,4D,53,
136887672,000003E9,false,Rx,0,8,FE,FF,00,00,00,00,00,00,
136887898,00000431,false,Rx,0,8,CA,FF,0B,02,69,26,F3,4B,
136888122,00000370,false,Rx,0,8,53,49,4D,50,20,45,43,4F,
136888326,00000521,false,Rx,0,6,00,05,00,00,02,DE,00,00,
136890008,00000373,false,Rx,0,8,2A,0D,6E,0D,24,01,26,01,
136892023,00000379,false,Rx,0,8,D2,00,00,00,01,00,00,00,
136893361,1801D08F,true,Rx,0,8,00,8C,00,6D,03,00,00,44,
136894033,00000372,false,Rx,0,8,0E,00,00,00,00,00,00,00,
136895811,00000112,false,Rx,0,8,F9,1F,3C,0B,40,01,65,47,
136902527,0000039D,false,Rx,0,5,21,58,01,28,00,00,00,00,
136905818,00000112,false,Rx,0,8,F9,1F,3C,0B,40,01,65,47,
136905995,000001A1,false,Rx,0,5,7C,CB,00,00,8A,00,00,00,
136907260,00000521,false,Rx,0,6,00,06,00,00,02,CE,00,00,
136915818,00000112,false,Rx,0,8,F9,1F,3C,0B,40,01,65,47,
136918351,00000522,false,Rx,0,6,01,02,00,04,63,85,00,00,
136925822,00000112,false,Rx,0,8,F9,1F,3C,0B,40,01,65,47,
136926000,000001A1,false,Rx,0,5,7C,CB,00,00,8A,00,00,00,
136927347,00000521,false,Rx,0,6,00,07,00,00,02,DF,00,00,
136935200,000003B4,false,Rx,0,8,00,FF,B0,F4,B8,FF,00,00,
136935829,00000112,false,Rx,0,8,F9,1F,3C,0B,40,01,65,47,
136941689,00000523,false,Rx,0,6,02,03,00,04,63,60,00,00,
136941907,00000524,false,Rx,0,6,03,03,00,00,00,2B,00,00,
136942468,0000039D,false,Rx,0,5,22,59,01,28,00,00,00,00,
136945827,00000112,false,Rx,0,8,F9,1F,3C,0B,40,01,65,47,
136946015,000001A1,false,Rx,0,5,7C,CB,00,00,8A,00,00,00,
136947677,00000521,false,Rx,0,6,00,08,00,00,02,D2,00,00,
136955223,00000272,false,Rx,0,8,02,F2,71,11,FF,FF,FF,FF,
136955831,00000112,false,Rx,0,8,F9,1F,3C,0B,40,01,65,47,
136959433,00000100,false,Rx,0,8,01,00,00,00,8E,08,52,12,
136959684,00000101,false,Rx,0,8,00,00,00,00,00,00,00,00,
136965837,00000112,false,Rx,0,8,F9,1F,3C,0B,40,01,65,47,
136966014,000001A1,false,Rx,0,5,7C,CB,00,00,8A,00,00,00,
136967258,00000521,false,Rx,0,6,00,09,00,00,02,DA,00,00,
136975834,00000112,false,Rx,0,8,F9,1F,3C,0B,40,01,65,47,
136978261,00000522,false,Rx,0,6,01,03,00,04,63,5C,00,00,
136982502,0000039D,false,Rx,0,5,23,5A,01,28,00,00,00,00,
136985836,00000112,false,Rx,0,8,F9,1F,3B,0B,40,01,65,47,
136986024,000001A1,false,Rx,0,5,7C,CB,00,00,8A,00,00,00,
136986270,000002FA,false,Rx,0,8,FD,FF,05,FF,FF,FF,FF,FF,
136986473,00000328,false,Rx,0,6,D5,00,00,00,87,1E,00,00,
136986717,0000003C,false,Rx,0,8,FF,5F,00,00,00,00,FF,FF,
136986856,000003E8,false,Rx,0,2,F1,FF,00,00,00,00,00,00,
136987101,000003E9,false,Rx,0,8,FE,FF,00,00,00,00,00,00,
136987325,0000012F,false,Rx,0,8,F5,28,86,1D,F1,35,30,80,
136987570,000002F1,false,Rx,0,8,36,10,7D,00,00,00,00,A0,
136987815,0000003F,false,Rx,0,8,00,00,00,80,00,80,64,CE,
136988051,000003F9,false,Rx,0,8,C0,F9,80,E0,43,3C,F3,FF,
136988276,00000431,false,Rx,0,8,CA,FF,0B,02,69,26,F3,4B,
136988510,00000432,false,Rx,0,8,2C,E2,10,A3,40,FF,02,FF,
136988766,00000510,false,Rx,0,8,40,10,20,00,00,00,00,00,
136989010,0000051A,false,Rx,0,8,00,00,00,00,50,00,00,1A,
136989214,00000521,false,Rx,0,6,00,0A,00,00,02,BD,00,00,
136989459,00000540,false,Rx,0,8,00,00,00,00,FD,3C,FF,40,
136993363,1801D08F,true,Rx,0,8,00,8C,00,6E,03,00,00,44,
136995863,00000112,false,Rx,0,8,F9,1F,3B,0B,40,01,65,47,
137001681,00000523,false,Rx,0,6,02,04,00,04,63,9A,00,00,
137001899,00000524,false,Rx,0,6,03,04,00,00,00,02,00,00,
137005867,00000112,false,Rx,0,8,F9,1F,3B,0B,40,01,65,47,
137006055,000001A1,false,Rx,0,5,7C,CB,00,00,8A,00,00,00,
137007674,00000521,false,Rx,0,6,00,0B,00,00,02,D0,00,00,
137015875,00000112,false,Rx,0,8,F9,1F,3B,0B,40,01,65,47,
137022504,0000039D,false,Rx,0,5,24,5B,01,28,00,00,00,00,
137025878,00000112,false,Rx,0,8,F9,1F,3B,0B,40,01,65,47,
137026055,000001A1,false,Rx,0,5,7C,CB,00,00,8A,00,00,00,
137027256,00000521,false,Rx,0,6,00,0C,00,00,02,D4,00,00,
137035876,00000112,false,Rx,0,8,F9,1F,3B,0B,40,01,65,47,
137038323,00000522,false,Rx,0,6,01,04,00,04,63,3B,00,00,
137045880,00000112,false,Rx,0,8,F9,1F,3B,0B,40,01,65,47,
137046058,000001A1,false,Rx,0,5,7C,CB,00,00,8A,00,00,00,
137047332,00000521,false,Rx,0,6,00,0D,00,00,02,BD,00,00,
137055888,00000112,false,Rx,0,8,F9,1F,3B,0B,40,01,65,47,
137059434,00000100,false,Rx,0,8,01,00,00,00,8E,08,58,12,
137059685,00000101,false,Rx,0,8,00,00,00,00,00,00,00,00,
137061669,00000523,false,Rx,0,6,02,05,00,04,63,90,00,00,
137061892,00000524,false,Rx,0,6,03,05,00,00,00,0C,00,00,
137062525,0000039D,false,Rx,0,5,25,5C,01,28,00,00,00,00,
137065888,00000112,false,Rx,0,8,F9,1F,3B,0B,40,01,65,47,
137066066,000001A1,false,Rx,0,5,7C,CB,00,00,8A,00,00,00,
137067655,00000521,false,Rx,0,6,00,0E,00,00,02,CA,00,00,
137075887,00000112,false,Rx,0,8,F9,1F,3B,0B,40,01,65,47,
137085891,00000112,false,Rx,0,8,F9,1F,3B,0B,40,01,65,47,
137086145,0000003C,false,Rx,0,8,FF,5F,00,00,00,00,FF,FF,
137086389,0000003F,false,Rx,0,8,00,00,00,C0,00,C0,64,C0,
137086612,0000012F,false,Rx,0,8,F5,28,86,1D,F1,35,30,80,
137086794,000001A1,false,Rx,0,5,7C,CB,00,00,8A,00,00,00,
137087039,000002F1,false,Rx,0,8,36,10,7D,00,00,00,00,A0,
137087285,000003E9,false,Rx,0,8,FE,FF,00,00,00,00,00,00,
137087508,00000431,false,Rx,0,8,CA,FF,0B,02,69,26,F3,4B,
137087712,00000521,false,Rx,0,6,00,0F,00,00,02,DE,00,00,
137093339,1801D08F,true,Rx,0,8,00,8C,00,6D,03,00,00,44,
137095901,00000112,false,Rx,0,8,F9,1F,3B,0B,40,01,65,47,
137098317,00000522,false,Rx,0,6,01,05,00,04,63,4C,00,00,
137102474,0000039D,false,Rx,0,5,26,5D,01,28,00,00,00,00,
137105902,00000112,false,Rx,0,8,F9,1F,3B,0B,40,01,65,47,
137106091,000001A1,false,Rx,0,5,7C,CB,00,00,8A,00,00,00,
137107323,00000521,false,Rx,0,6,00,00,00,00,02,D0,00,00,
137115910,00000112,false,Rx,0,8,F9,1F,3B,0B,40,01,65,47,
137121654,00000523,false,Rx,0,6,02,06,00,04,63,A6,00,00,
137121873,00000524,false,Rx,0,6,03,06,00,00,00,1C,00,00,
137125913,00000112,false,Rx,0,8,F9,1F,3B,0B,40,01,65,47,
137126092,000001A1,false,Rx,0,5,7C,CB,00,00,8A,00,00,00,
137127649,00000521,false,Rx,0,6,00,01,00,00,02,CD,00,00,
137135531,000003B4,false,Rx,0,8,00,FF,B0,F4,B8,FF,00,00,
137135918,00000112,false,Rx,0,8,F9,1F,3B,0B,40,01,65,47,
137142477,0000039D,false,Rx,0,5,27,5E,01,28,00,00,00,00,
137145925,00000112,false,Rx,0,8,F9,1F,3B,0B,40,01,65,47,
137146104,000001A1,false,Rx,0,5,7C,CB,00,00,8A,00,00,00,
137147230,00000521,false,Rx,0,6,00,02,00,00,02,C1,00,00,
137155555,00000272,false,Rx,0,8,5F,F3,71,11,FF,FF,FF,FF,
137155920,00000112,false,Rx,0,8,F9,1F,3B,0B,40,01,65,47,
137158230,00000522,false,Rx,0,6,01,06,00,04,63,6A,00,00,
137159419,00000100,false,Rx,0,8,01,00,00,00,8E,08,52,12,
137159672,00000101,false,Rx,0,8,00,00,00,00,00,00,00,00,
137165929,00000112,false,Rx,0,8,F9,1F,3B,0B,40,01,65,47,
137166108,000001A1,false,Rx,0,5,7C,CB,00,00,8A,00,00,00,
137167318,00000521,false,Rx,0,6,00,03,00,00,02,D1,00,00,
137175929,00000112,false,Rx,0,8,F9,1F,3B,0B,40,01,65,47,
137181648,00000523,false,Rx,0,6,02,07,00,04,63,92,00,00,
137181867,00000524,false,Rx,0,6,03,07,00,00,00,06,00,00,
137182543,0000039D,false,Rx,0,5,28,5F,01,28,00,00,00,00,
137182786,0000035D,false,Rx,0,8,02,00,88,08,00,00,20,F0,
137185930,00000112,false,Rx,0,8,F9,1F,3B,0B,40,01,65,47,
137186182,0000003C,false,Rx,0,8,FF,5F,00,00,00,00,FF,FF,
137186364,000001A1,false,Rx,0,5,7C,CB,00,00,8A,00,00,00,
137186618,000002FA,false,Rx,0,8,FD,FF,05,FF,FF,FF,FF,FF,
137186843,0000012F,false,Rx,0,8,F5,28,86,1D,F1,35,30,80,
137187076,000002F1,false,Rx,0,8,36,10,7D,00,00,00,00,A0,
137187334,0000003F,false,Rx,0,8,00,00,00,00,00,00,64,65,
137187579,000003E9,false,Rx,0,8,FE,FF,00,00,00,00,00,00,
137187803,00000431,false,Rx,0,8,CA,FF,0B,02,69,26,F3,4B,
137188037,00000432,false,Rx,0,8,2C,E2,10,A3,40,FF,02,FF,
137188283,00000510,false,Rx,0,8,40,10,20,00,00,00,00,00,
137188528,0000051A,false,Rx,0,8,00,00,00,00,50,00,00,1A,
137188730,00000521,false,Rx,0,6,00,04,00,00,02,CE,00,00,
