Time Stamp,ID,Extended,Dir,Bus,LEN,D1,D2,D3,D4,D5,D6,D7,D8
30647568,00000112,false,Rx,0,8,FA,1F,76,0B,86,01,65,49,
30647820,0000003C,false,Rx,0,8,FF,5F,00,00,00,00,FF,FF,
30648064,0000003F,false,Rx,0,8,00,00,00,40,00,40,64,6B,
30648288,0000012F,false,Rx,0,8,F5,28,86,1D,F1,35,30,80,
30648471,000001A1,false,Rx,0,5,7C,CB,00,00,8A,00,00,00,
30648705,000002F1,false,Rx,0,8,36,10,7D,60,09,08,07,A0,
30648960,000003E9,false,Rx,0,8,FE,FF,00,00,00,00,00,00,
30649183,00000431,false,Rx,0,8,CA,FF,0B,02,69,26,F3,4B,
30649387,00000521,false,Rx,0,6,00,0F,00,00,02,6C,00,00,
30657589,00000112,false,Rx,0,8,FA,1F,76,0B,86,01,65,49,
30660174,00000523,false,Rx,0,6,02,0B,00,04,7A,3D,00,00,
30661201,00000524,false,Rx,0,6,03,0B,00,00,00,00,00,00,
30667590,00000112,false,Rx,0,8,FA,1F,76,0B,86,01,65,49,
30667769,000001A1,false,Rx,0,5,7C,CB,00,00,8A,00,00,00,
30669211,00000521,false,Rx,0,6,00,00,00,00,02,58,00,00,
30675268,00000100,false,Rx,0,8,01,00,00,00,3D,09,75,12,
30675521,00000101,false,Rx,0,8,00,00,00,00,00,00,00,00,
30677587,00000112,false,Rx,0,8,FA,1F,76,0B,86,01,65,49,
30680810,0000039D,false,Rx,0,5,1D,54,01,28,00,00,00,00,
30682161,00000522,false,Rx,0,6,01,0B,00,04,7A,1C,00,00,
30687590,00000112,false,Rx,0,8,FA,1F,76,0B,86,01,65,49,
30687779,000001A1,false,Rx,0,5,7C,CB,00,00,8A,00,00,00,
30689082,00000521,false,Rx,0,6,00,01,00,00,02,7C,00,00,
30697598,00000112,false,Rx,0,8,FA,1F,76,0B,86,01,65,49,
30707605,00000112,false,Rx,0,8,FA,1F,76,0B,86,01,65,49,
30707782,000001A1,false,Rx,0,5,7C,CB,00,00,8A,00,00,00,
30709160,00000521,false,Rx,0,6,00,02,00,00,02,6D,00,00,
30717605,00000112,false,Rx,0,8,FA,1F,76,0B,86,01,65,49,
30720167,00000523,false,Rx,0,6,02,0C,00,04,7A,10,00,00,
30720839,0000039D,false,Rx,0,5,1E,55,01,28,00,00,00,00,
30721188,00000524,false,Rx,0,6,03,0C,00,00,00,10,00,00,
30727602,00000112,false,Rx,0,8,FA,1F,76,0B,86,01,65,49,
30727790,000001A1,false,Rx,0,5,7C,CB,00,00,8A,00,00,00,
30729199,00000521,false,Rx,0,6,00,03,00,00,02,59,00,00,
30737609,00000112,false,Rx,0,8,FA,1F,76,0B,86,01,65,49,
30737933,1801D08F,true,Rx,0,8,00,8C,00,5F,03,00,00,47,
30742144,00000522,false,Rx,0,6,01,0C,00,04,7A,3D,00,00,
30747611,00000112,false,Rx,0,8,FA,1F,76,0B,86,01,65,49,
30747789,000001A1,false,Rx,0,5,7C,CB,00,00,8A,00,00,00,
30748043,000002FA,false,Rx,0,8,FD,FF,05,FF,FF,FF,FF,FF,
30748246,00000328,false,Rx,0,6,B1,00,00,00,87,1E,00,00,
30748492,0000003C,false,Rx,0,8,FF,5F,00,00,00,00,FF,FF,
30748632,000003E8,false,Rx,0,2,F1,FF,00,00,00,00,00,00,
30748875,000003E9,false,Rx,0,8,FE,FF,00,00,00,00,00,00,
30749100,0000012F,false,Rx,0,8,F5,28,86,1D,F1,35,30,80,
30749344,000002F1,false,Rx,0,8,36,10,7D,60,09,08,07,A0,
30749589,0000003F,false,Rx,0,8,00,00,00,80,00,80,64,CE,
30749825,000003F9,false,Rx,0,8,C0,F9,80,E0,43,3C,F3,FF,
30750050,00000431,false,Rx,0,8,CA,FF,0B,02,69,26,F3,4B,
30750273,00000432,false,Rx,0,8,2C,E2,10,A3,4E,FF,02,FF,
30750529,00000510,false,Rx,0,8,40,10,20,00,00,00,00,00,
30750775,0000051A,false,Rx,0,8,00,00,00,00,50,00,00,1A,
30750977,00000521,false,Rx,0,6,00,04,00,00,02,6D,00,00,
30751221,00000540,false,Rx,0,8,00,00,00,00,FD,3C,FF,40,
30757638,00000112,false,Rx,0,8,FA,1F,76,0B,86,01,65,49,
30760834,0000039D,false,Rx,0,5,1F,56,01,28,00,00,00,00,
30761084,0000035D,false,Rx,0,8,02,00,88,08,00,00,20,F0,
30767639,00000112,false,Rx,0,8,FA,1F,76,0B,86,01,65,49,
30767827,000001A1,false,Rx,0,5,7C,CB,00,00,8A,00,00,00,
30769070,00000521,false,Rx,0,6,00,05,00,00,02,71,00,00,
30775263,00000100,false,Rx,0,8,01,00,00,00,3D,09,75,12,
30775515,00000101,false,Rx,0,8,00,00,00,00,00,00,00,00,
30777646,00000112,false,Rx,0,8,FA,1F,76,0B,86,01,65,49,
30780153,00000523,false,Rx,0,6,02,0D,00,04,7A,31,00,00,
30780870,000003B4,false,Rx,0,8,00,FF,30,F0,B8,FF,00,00,
30781167,00000524,false,Rx,0,6,03,0D,00,00,00,04,00,00,
30787641,00000112,false,Rx,0,8,FA,1F,76,0B,86,01,65,49,
30787829,000001A1,false,Rx,0,5,7C,CB,00,00,8A,00,00,00,
30789197,00000521,false,Rx,0,6,00,06,00,00,02,7F,00,00,
30797652,00000112,false,Rx,0,8,FA,1F,76,0B,86,01,65,49,
30800827,0000039D,false,Rx,0,5,20,57,01,28,00,00,00,00,
30801098,00000272,false,Rx,0,8,5F,F3,71,11,FF,FF,FF,FF,
30802141,00000522,false,Rx,0,6,01,0D,00,04,79,FF,00,00,
30807658,00000112,false,Rx,0,8,FA,1F,75,0B,86,01,65,49,
30807835,000001A1,false,Rx,0,5,7C,CB,00,00,8A,00,00,00,
30809140,00000521,false,Rx,0,6,00,07,00,00,02,6F,00,00,
30817655,00000112,false,Rx,0,8,FA,1F,75,0B,86,01,65,49,
30827659,00000112,false,Rx,0,8,FA,1F,75,0B,86,01,65,49,
30827837,000001A1,false,Rx,0,5,7C,CB,00,00,8A,00,00,00,
30829143,00000521,false,Rx,0,6,00,08,00,00,02,6F,00,00,
30837659,00000112,false,Rx,0,8,FA,1F,75,0B,86,01,65,49,
30837941,1801D08F,true,Rx,0,8,00,8C,00,5F,03,00,00,47,
30840146,00000523,false,Rx,0,6,02,0E,00,04,7A,0C,00,00,
30840843,0000039D,false,Rx,0,5,21,58,01,28,00,00,00,00,
30841160,00000524,false,Rx,0,6,03,0E,FF,FF,FF,E8,00,00,
30847665,00000112,false,Rx,0,8,FA,1F,75,0B,86,01,65,49,
30847915,0000003C,false,Rx,0,8,FF,5F,00,00,00,00,FF,FF,
30848161,0000003F,false,Rx,0,8,00,00,00,C0,00,C0,64,C0,
30848384,0000012F,false,Rx,0,8,F5,28,86,1D,F1,35,30,80,
30848567,000001A1,false,Rx,0,5,7C,CB,00,00,8A,00,00,00,
30848800,000002F1,false,Rx,0,8,36,10,7D,60,09,08,07,A0,
30849056,000003E9,false,Rx,0,8,FE,FF,00,00,00,00,00,00,
30849280,00000431,false,Rx,0,8,CA,FF,0B,02,69,26,F3,4B,
30849483,00000521,false,Rx,0,6,00,09,00,00,02,6D,00,00,
30857677,00000112,false,Rx,0,8,FA,1F,75,0B,86,01,65,49,
30860947,000005BD,false,Rx,0,8,B3,80,00,00,00,00,00,00,
30862133,00000522,false,Rx,0,6,01,0E,00,04,7A,0B,00,00,
30867679,00000112,false,Rx,0,8,FA,1F,75,0B,86,01,65,49,
30867867,000001A1,false,Rx,0,5,7C,CB,00,00,8A,00,00,00,
30869129,00000521,false,Rx,0,6,00,0A,00,00,02,65,00,00,
30875258,00000100,false,Rx,0,8,01,00,00,00,3D,09,75,12,
30875510,00000101,false,Rx,0,8,00,00,00,00,00,00,00,00,
30877682,00000112,false,Rx,0,8,FA,1F,75,0B,86,01,65,49,
30880788,0000039D,false,Rx,0,5,22,59,01,28,00,00,00,00,
30887687,00000112,false,Rx,0,8,FA,1F,75,0B,86,01,65,49,
30887865,000001A1,false,Rx,0,5,7C,CB,00,00,8A,00,00,00,
30889127,00000521,false,Rx,0,6,00,0B,00,00,02,64,00,00,
30897696,00000112,false,Rx,0,8,FA,1F,75,0B,86,01,65,49,
30900132,00000523,false,Rx,0,6,02,0F,00,04,7A,3D,00,00,
30901150,00000524,false,Rx,0,6,03,0F,FF,FF,FF,F2,00,00,
30907688,00000112,false,Rx,0,8,FA,1F,75,0B,86,01,65,49,
30907876,000001A1,false,Rx,0,5,7C,CB,00,00,8A,00,00,00,
30909170,00000521,false,Rx,0,6,00,0C,00,00,02,6E,00,00,
30917696,00000112,false,Rx,0,8,FA,1F,75,0B,86,01,65,49,
30920818,0000039D,false,Rx,0,5,23,5A,01,28,00,00,00,00,
30922119,00000522,false,Rx,0,6,01,0F,00,04,7A,1C,00,00,
30927696,00000112,false,Rx,0,8,FA,1F,76,0B,86,01,65,49,
30927884,000001A1,false,Rx,0,5,7C,CB,00,00,8A,00,00,00,
30929116,00000521,false,Rx,0,6,00,0D,00,00,02,60,00,00,
30937704,00000112,false,Rx,0,8,FA,1F,76,0B,86,01,65,49,
30937986,1801D08F,true,Rx,0,8,00,8C,00,5F,03,00,00,47,
30947709,00000112,false,Rx,0,8,FA,1F,76,0B,86,01,65,49,
30947960,0000003C,false,Rx,0,8,FF,5F,00,00,00,00,FF,FF,
30948142,000001A1,false,Rx,0,5,7C,CB,00,00,8A,00,00,00,
30948386,000002FA,false,Rx,0,8,FD,FF,05,FF,FF,FF,FF,FF,
30948610,0000012F,false,Rx,0,8,F5,28,86,1D,F1,35,30,80,
30948846,000002F1,false,Rx,0,8,36,10,7D,60,09,08,07,A0,
30949100,0000003F,false,Rx,0,8,00,00,00,00,00,00,64,65,
30949345,000003E9,false,Rx,0,8,FE,FF,00,00,00,00,00,00,
30949571,00000431,false,Rx,0,8,CA,FF,0B,02,69,26,F3,4B,
30949805,00000432,false,Rx,0,8,2C,E2,10,A3,4E,FF,02,FF,
30950049,00000510,false,Rx,0,8,40,10,20,00,00,00,00,00,
30950295,0000051A,false,Rx,0,8,00,00,00,00,50,00,00,1A,
30950498,00000521,false,Rx,0,6,00,0E,00,00,02,6F,00,00,
30950742,00000540,false,Rx,0,8,00,00,00,00,FD,3C,FF,40,
30957722,00000112,false,Rx,0,8,FA,1F,76,0B,86,01,65,49,
30960127,00000523,false,Rx,0,6,02,00,00,04,7A,29,00,00,
30960829,0000039D,false,Rx,0,5,24,5B,01,28,00,00,00,00,
30961148,00000524,false,Rx,0,6,03,00,00,00,00,00,00,00,
30967730,00000112,false,Rx,0,8,FA,1F,76,0B,86,01,65,49,
30967907,000001A1,false,Rx,0,5,7C,CB,00,00,8A,00,00,00,
30969149,00000521,false,Rx,0,6,00,0F,00,00,02,6B,00,00,
30975246,00000100,false,Rx,0,8,01,00,00,00,3D,09,75,12,
30975498,00000101,false,Rx,0,8,00,00,00,00,00,00,00,00,
30977733,00000112,false,Rx,0,8,FA,1F,76,0B,86,01,65,49,
30981417,000003B4,false,Rx,0,8,00,FF,30,F0,B8,FF,00,00,
30982036,00000522,false,Rx,0,6,01,00,00,04,7A,09,00,00,
30987737,00000112,false,Rx,0,8,FA,1F,75,0B,86,01,65,49,
30987915,000001A1,false,Rx,0,5,7C,CB,00,00,8A,00,00,00,
30989115,00000521,false,Rx,0,6,00,00,00,00,02,69,00,00,
30997735,00000112,false,Rx,0,8,FA,1F,75,0B,86,01,65,49,
31000847,0000039D,false,Rx,0,5,25,5C,01,28,00,00,00,00,
31001235,00000272,false,Rx,0,8,D1,F4,71,11,FF,FF,FF,FF,
31007737,00000112,false,Rx,0,8,FA,1F,75,0B,86,01,65,49,
31007927,000001A1,false,Rx,0,5,7C,CB,00,00,8A,00,00,00,
31009115,00000521,false,Rx,0,6,00,01,00,00,02,6D,00,00,
31017747,00000112,false,Rx,0,8,FA,1F,75,0B,86,01,65,49,
31020109,00000523,false,Rx,0,6,02,01,00,04,7A,29,00,00,
31021127,00000524,false,Rx,0,6,03,01,00,00,00,18,00,00,
31027748,00000112,false,Rx,0,8,FA,1F,75,0B,86,01,65,49,
31027927,000001A1,false,Rx,0,5,7C,CB,00,00,8A,00,00,00,
31029136,00000521,false,Rx,0,6,00,02,00,00,02,6C,00,00,
31037748,00000112,false,Rx,0,8,FA,1F,75,0B,86,01,65,49,
31038031,1801D08F,true,Rx,0,8,00,8C,00,5F,03,00,00,47,
31040801,0000039D,false,Rx,0,5,26,5D,01,28,00,00,00,00,
31042018,00000522,false,Rx,0,6,01,01,00,04,7A,0B,00,00,
31047759,00000112,false,Rx,0,8,FA,1F,75,0B,86,01,65,49,
31048001,0000003C,false,Rx,0,8,FF,5F,00,00,00,00,FF,FF,
31048245,0000003F,false,Rx,0,8,00,00,00,40,00,40,64,6B,
31048480,0000012F,false,Rx,0,8,F5,28,86,1D,F1,35,30,80,
31048653,000001A1,false,Rx,0,5,7C,CB,00,00,8A,00,00,00,
31048897,000002F1,false,Rx,0,8,36,10,7D,60,09,08,07,A0,
31049141,000003E9,false,Rx,0,8,FE,FF,00,00,00,00,00,00,
31049366,00000431,false,Rx,0,8,CA,FF,0B,02,69,26,F3,4B,
31049569,00000521,false,Rx,0,6,00,03,00,00,02,78,00,00,
31055872,00000351,false,Rx,0,8,20,0D,C8,00,DC,05,D3,0A,
31056102,00000355,false,Rx,0,8,27,00,64,00,86,01,00,00,
31056348,00000356,false,Rx,0,8,A6,72,FA,FF,E1,00,00,00,
31057768,00000112,false,Rx,0,8,FA,1F,75,0B,86,01,65,49,
31058234,0000035A,false,Rx,0,8,00,00,00,00,00,00,00,00,
31058457,0000035E,false,Rx,0,8,53,49,4D,50,20,42,4D,53,
31060214,00000370,false,Rx,0,8,53,49,4D,50,20,45,43,4F,
31062228,00000373,false,Rx,0,8,8F,0D,AA,0D,27,01,28,01,
31064254,00000379,false,Rx,0,8,D2,00,00,00,01,00,00,00,
31066258,00000372,false,Rx,0,8,0E,00,00,00,00,00,00,00,
31067773,00000112,false,Rx,0,8,FA,1F,75,0B,86,01,65,49,
31067955,000001A1,false,Rx,0,5,7C,CB,00,00,8A,00,00,00,
31069018,00000521,false,Rx,0,6,00,04,00,00,02,4F,00,00,
31075238,00000100,false,Rx,0,8,01,00,00,00,3D,09,75,12,
31075491,00000101,false,Rx,0,8,00,00,00,00,00,00,00,00,
31077768,00000112,false,Rx,0,8,FB,1F,75,0B,86,01,65,49,
31080098,00000523,false,Rx,0,6,02,02,00,04,7A,39,00,00,
31080793,0000039D,false,Rx,0,5,27,5E,01,28,00,00,00,00,
31081112,00000524,false,Rx,0,6,03,02,00,00,00,3B,00,00,
31087773,00000112,false,Rx,0,8,FB,1F,75,0B,86,01,65,49,
31087961,000001A1,false,Rx,0,5,7C,CB,00,00,8A,00,00,00,
31089139,00000521,false,Rx,0,6,00,05,00,00,02,85,00,00,
31090894,0000035D,false,Rx,0,8,00,00,00,00,00,00,00,00,
31097780,00000112,false,Rx,0,8,FA,1F,75,0B,86,01,65,49,
31102010,00000522,false,Rx,0,6,01,02,00,04,7A,30,00,00,
31107784,00000112,false,Rx,0,8,FA,1F,76,0B,86,01,65,49,
31107961,000001A1,false,Rx,0,5,7C,CB,00,00,8A,00,00,00,
31109003,00000521,false,Rx,0,6,00,06,00,00,02,69,00,00,
31117783,00000112,false,Rx,0,8,FA,1F,76,0B,86,01,65,49,
31120854,0000039D,false,Rx,0,5,28,5F,01,28,00,00,00,00,
31127787,00000112,false,Rx,0,8,FA,1F,76,0B,86,01,65,49,
31127975,000001A1,false,Rx,0,5,7C,CB,00,00,8A,00,00,00,
31129079,00000521,false,Rx,0,6,00,07,00,00,02,75,00,00,
31137794,00000112,false,Rx,0,8,FA,1F,76,0B,86,01,65,49,
31138076,1801D08F,true,Rx,0,8,00,8C,00,5F,03,00,00,47,
31140091,00000523,false,Rx,0,6,02,03,00,04,7A,43,00,00,
31141102,00000524,false,Rx,0,6,03,03,00,00,00,00,00,00,
31147790,00000112,false,Rx,0,8,FA,1F,76,0B,86,01,65,49,
31148041,0000003C,false,Rx,0,8,FF,5F,00,00,00,00,FF,FF,
31148223,000001A1,false,Rx,0,5,7C,CB,00,00,8A,00,00,00,
31148479,000002FA,false,Rx,0,8,FD,FF,05,FF,FF,FF,FF,FF,
31148703,0000012F,false,Rx,0,8,F5,28,86,1D,F1,35,30,80,
31148936,000002F1,false,Rx,0,8,36,10,7D,60,09,08,07,A0,
31149181,0000003F,false,Rx,0,8,00,00,00,80,00,80,64,CE,
31149426,000003E9,false,Rx,0,8,FE,FF,00,00,00,00,00,00,
31149661,00000431,false,Rx,0,8,CA,FF,0B,02,69,26,F3,4B,
31149885,00000432,false,Rx,0,8,2C,E2,10,A3,4E,FF,02,FF,
31150141,00000510,false,Rx,0,8,40,10,20,00,00,00,00,00,
31150385,0000051A,false,Rx,0,8,00,00,00,00,50,00,00,1A,
31150589,00000521,false,Rx,0,6,00,08,00,00,02,63,00,00,
31150834,00000540,false,Rx,0,8,00,00,00,00,FD,3C,FF,40,
31157815,00000112,false,Rx,0,8,FA,1F,76,0B,86,01,65,49,
31160812,0000039D,false,Rx,0,5,19,50,01,28,00,00,00,00,
31161996,00000522,false,Rx,0,6,01,03,00,04,7A,15,00,00,
31167818,00000112,false,Rx,0,8,FA,1F,75,0B,86,01,65,49,
31168006,000001A1,false,Rx,0,5,7C,CB,00,00,8A,00,00,00,
31169079,00000521,false,Rx,0,6,00,09,00,00,02,80,00,00,
31175217,00000100,false,Rx,0,8,01,00,00,00,3D,09,75,12,
31175471,00000101,false,Rx,0,8,00,00,00,00,00,00,00,00,
31177821,00000112,false,Rx,0,8,FA,1F,75,0B,86,01,65,49,
31181551,000003B4,false,Rx,0,8,00,FF,30,F0,B8,FF,00,00,
31187829,00000112,false,Rx,0,8,FA,1F,75,0B,86,01,65,49,
31188006,000001A1,false,Rx,0,5,7C,CB,00,00,8A,00,00,00,
31189069,00000521,false,Rx,0,6,00,0A,00,00,02,76,00,00,
31197826,00000112,false,Rx,0,8,FA,1F,75,0B,86,01,65,49,
31200073,00000523,false,Rx,0,6,02,04,00,04,7A,3B,00,00,
31200829,0000039D,false,Rx,0,5,1A,51,01,28,00,00,00,00,
31201094,00000524,false,Rx,0,6,03,04,FF,FF,FF,E8,00,00,
31201592,00000272,false,Rx,0,8,8C,F5,71,11,FF,FF,FF,FF,
31207829,00000112,false,Rx,0,8,FA,1F,75,0B,86,01,65,49,
31208017,000001A1,false,Rx,0,5,7C,CB,00,00,8A,00,00,00,
31209112,00000521,false,Rx,0,6,00,0B,00,00,02,83,00,00,
31217836,00000112,false,Rx,0,8,FA,1F,75,0B,86,01,65,49,
31222066,00000522,false,Rx,0,6,01,04,00,04,7A,05,00,00,
31227839,00000112,false,Rx,0,8,FA,1F,75,0B,86,01,65,49,
31228016,000001A1,false,Rx,0,5,7C,CB,00,00,8A,00,00,00,
31228974,00000521,false,Rx,0,6,00,0C,00,00,02,81,00,00,
31231632,000003C3,false,Rx,0,8,86,18,09,92,24,29,92,24,
31237847,00000112,false,Rx,0,8,FA,1F,75,0B,86,01,65,49,
31238129,1801D08F,true,Rx,0,8,00,8C,00,5F,03,00,00,47,
31240785,0000039D,false,Rx,0,5,1B,52,01,28,00,00,00,00,
31247839,00000112,false,Rx,0,8,FA,1F,75,0B,86,01,65,49,
31248090,0000003C,false,Rx,0,8,FF,5F,00,00,00,00,FF,FF,
31248335,0000003F,false,Rx,0,8,00,00,00,C0,00,C0,64,C0,
31248561,0000012F,false,Rx,0,8,F5,28,86,1D,F1,35,30,80,
31248742,000001A1,false,Rx,0,5,7C,CB,00,00,8A,00,00,00,
31248986,000002F1,false,Rx,0,8,36,10,7D,60,09,08,07,A0,
31249232,000003E9,false,Rx,0,8,FE,FF,00,00,00,00,00,00,
31249455,00000431,false,Rx,0,8,CA,FF,0B,02,69,26,F3,4B,
31249660,00000521,false,Rx,0,6,00,0D,00,00,02,7A,00,00,
31257852,00000112,false,Rx,0,8,FA,1F,75,0B,86,01,65,49,
31260057,00000523,false,Rx,0,6,02,05,00,04,7A,27,00,00,
31261084,00000524,false,Rx,0,6,03,05,00,00,00,04,00,00,
31267864,00000112,false,Rx,0,8,FA,1F,75,0B,86,01,65,49,
31268042,000001A1,false,Rx,0,5,7C,CB,00,00,8A,00,00,00,
31269096,00000521,false,Rx,0,6,00,0E,00,00,02,67,00,00,
31275203,00000100,false,Rx,0,8,01,00,00,00,3D,09,75,12,
31275464,00000101,false,Rx,0,8,00,00,00,00,00,00,00,00,
31277858,00000112,false,Rx,0,8,FA,1F,75,0B,86,01,65,49,
31280766,0000039D,false,Rx,0,5,1C,53,01,28,00,00,00,00,
31282044,00000522,false,Rx,0,6,01,05,00,04,7A,28,00,00,
31287862,00000112,false,Rx,0,8,FA,1F,76,0B,86,01,65,49,
31288050,000001A1,false,Rx,0,5,7C,CB,00,00,8A,00,00,00,
31289041,00000521,false,Rx,0,6,00,0F,00,00,02,6E,00,00,
31297870,00000112,false,Rx,0,8,FA,1F,76,0B,86,01,65,49,
31307875,00000112,false,Rx,0,8,FA,1F,76,0B,86,01,65,49,
31308053,000001A1,false,Rx,0,5,7C,CB,00,00,8A,00,00,00,
31309054,00000521,false,Rx,0,6,00,00,00,00,02,7A,00,00,
31317872,00000112,false,Rx,0,8,FA,1F,76,0B,86,01,65,49,
31320046,00000523,false,Rx,0,6,02,06,00,04,7A,20,00,00,
31320843,0000039D,false,Rx,0,5,1D,54,01,28,00,00,00,00,
31321066,00000524,false,Rx,0,6,03,06,FF,FF,FF,EC,00,00,
31327882,00000112,false,Rx,0,8,FA,1F,76,0B,86,01,65,49,
31328060,000001A1,false,Rx,0,5,7C,CB,00,00,8A,00,00,00,
31329092,00000521,false,Rx,0,6,00,01,00,00,02,65,00,00,
31337912,1801D08F,true,Rx,0,8,00,8C,00,5F,03,00,00,47,
31338143,00000112,false,Rx,0,8,FA,1F,76,0B,86,01,65,49,
31342037,00000522,false,Rx,0,6,01,06,00,04,7A,2A,00,00,
31347883,00000112,false,Rx,0,8,FA,1F,76,0B,86,01,65,49,
31348135,0000003C,false,Rx,0,8,FF,5F,00,00,00,00,FF,FF,
31348317,000001A1,false,Rx,0,5,7C,CB,00,00,8A,00,00,00,
31348562,000002FA,false,Rx,0,8,FD,FF,05,FF,FF,FF,FF,FF,
31348785,0000012F,false,Rx,0,8,F5,28,86,1D,F1,35,30,80,
31349031,000002F1,false,Rx,0,8,36,10,7D,60,09,08,07,A0,
31349275,0000003F,false,Rx,0,8,00,00,00,00,00,00,64,65,
31349521,000003E9,false,Rx,0,8,FE,FF,00,00,00,00,00,00,
31349745,00000431,false,Rx,0,8,CA,FF,0B,02,69,26,F3,4B,
31349980,00000432,false,Rx,0,8,2C,E2,10,A3,4E,FF,02,FF,
31350224,00000510,false,Rx,0,8,40,10,20,00,00,00,00,00,
31350471,0000051A,false,Rx,0,8,00,00,00,00,50,00,00,1A,
31350673,00000521,false,Rx,0,6,00,02,00,00,02,71,00,00,
31350917,00000540,false,Rx,0,8,00,00,00,00,FD,3C,FF,40,
31357906,00000112,false,Rx,0,8,FA,1F,76,0B,86,01,65,49,
31360829,0000039D,false,Rx,0,5,1E,55,01,28,00,00,00,00,
31367912,00000112,false,Rx,0,8,FA,1F,76,0B,86,01,65,49,
31368091,000001A1,false,Rx,0,5,7C,CB,00,00,8A,00,00,00,
31369049,00000521,false,Rx,0,6,00,03,00,00,02,6F,00,00,
31375207,00000100,false,Rx,0,8,01,00,00,00,3D,09,75,12,
31375458,00000101,false,Rx,0,8,00,00,00,00,00,00,00,00,
31377914,00000112,false,Rx,0,8,FA,1F,76,0B,86,01,65,49,
31380034,00000523,false,Rx,0,6,02,07,00,04,7A,5C,00,00,
31381055,00000524,false,Rx,0,6,03,07,FF,FF,FF,FE,00,00,
31381895,000003B4,false,Rx,0,8,00,FF,30,F0,B8,FF,00,00,
31387914,00000112,false,Rx,0,8,FA,1F,76,0B,86,01,65,49,
31388093,000001A1,false,Rx,0,5,7C,CB,00,00,8A,00,00,00,
31389082,00000521,false,Rx,0,6,00,04,00,00,02,6F,00,00,
31397923,00000112,false,Rx,0,8,FA,1F,76,0B,86,01,65,49,
31400783,0000039D,false,Rx,0,5,1F,56,01,28,00,00,00,00,
31402031,00000522,false,Rx,0,6,01,07,00,04,7A,20,00,00,
31402264,00000272,false,Rx,0,8,6B,F6,71,11,FF,FF,FF,FF,
31407920,00000112,false,Rx,0,8,FA,1F,76,0B,86,01,65,49,
31408099,000001A1,false,Rx,0,5,7C,CB,00,00,8A,00,00,00,
31409036,00000521,false,Rx,0,6,00,05,00,00,02,78,00,00,
31417928,00000112,false,Rx,0,8,FA,1F,76,0B,86,01,65,49,
31420862,0000035D,false,Rx,0,8,01,00,00,00,00,00,00,00,
31427922,00000112,false,Rx,0,8,FA,1F,76,0B,86,01,65,49,
31428111,000001A1,false,Rx,0,5,7C,CB,00,00,8A,00,00,00,
31429038,00000521,false,Rx,0,6,00,06,00,00,02,6F,00,00,
31437898,1801D08F,true,Rx,0,8,00,8C,00,5F,03,00,00,47,
31438129,00000112,false,Rx,0,8,FA,1F,76,0B,86,01,65,49,
31440039,00000523,false,Rx,0,6,02,08,00,04,7A,48,00,00,
31440778,0000039D,false,Rx,0,5,20,57,01,28,00,00,00,00,
31441054,00000524,false,Rx,0,6,03,08,00,00,00,14,00,00,
31447932,00000112,false,Rx,0,8,FA,1F,76,0B,86,01,65,49,
31448184,0000003C,false,Rx,0,8,FF,5F,00,00,00,00,FF,FF,
31448429,0000003F,false,Rx,0,8,00,00,00,40,00,40,64,6B,
31448653,0000012F,false,Rx,0,8,F5,28,86,1D,F1,35,30,80,
31448836,000001A1,false,Rx,0,5,7C,CB,00,00,8A,00,00,00,
31449069,000002F1,false,Rx,0,8,36,10,7D,60,09,08,07,A0,
31449314,000003E9,false,Rx,0,8,FE,FF,00,00,00,00,00,00,
31449539,00000431,false,Rx,0,8,CA,FF,0B,02,69,26,F3,4B,
31449742,00000521,false,Rx,0,6,00,07,00,00,02,75,00,00,
31457945,00000112,false,Rx,0,8,FA,1F,76,0B,86,01,65,49,
31461945,00000522,false,Rx,0,6,01,08,00,04,7A,01,00,00,
31467949,00000112,false,Rx,0,8,FA,1F,75,0B,86,01,65,49,
31468127,000001A1,false,Rx,0,5,7C,CB,00,00,8A,00,00,00,
31469022,00000521,false,Rx,0,6,00,08,00,00,02,5E,00,00,
31475212,00000100,false,Rx,0,8,01,00,00,00,3D,09,75,12,
31475463,00000101,false,Rx,0,8,00,00,00,00,00,00,00,00,
31477952,00000112,false,Rx,0,8,FA,1F,75,0B,86,01,65,49,
31480806,0000039D,false,Rx,0,5,21,58,01,28,00,00,00,00,
31487958,00000112,false,Rx,0,8,FA,1F,75,0B,86,01,65,49,
31488135,000001A1,false,Rx,0,5,7C,CB,00,00,8A,00,00,00,
31489010,00000521,false,Rx,0,6,00,09,00,00,02,5E,00,00,
31497955,00000112,false,Rx,0,8,FA,1F,75,0B,86,01,65,49,
31500022,00000523,false,Rx,0,6,02,09,00,04,7A,60,00,00,
31501039,00000524,false,Rx,0,6,03,09,00,00,00,0A,00,00,
31507957,00000112,false,Rx,0,8,FA,1F,75,0B,86,01,65,49,
31508145,000001A1,false,Rx,0,5,7C,CB,00,00,8A,00,00,00,
31509051,00000521,false,Rx,0,6,00,0A,00,00,02,7B,00,00,
31517965,00000112,false,Rx,0,8,FA,1F,75,0B,86,01,65,49,
31520825,0000039D,false,Rx,0,5,22,59,01,28,00,00,00,00,
31521926,00000522,false,Rx,0,6,01,09,00,04,7A,1E,00,00,
31527968,00000112,false,Rx,0,8,FA,1F,76,0B,86,01,65,49,
31528146,000001A1,false,Rx,0,5,7C,CB,00,00,8A,00,00,00,
31528926,00000521,false,Rx,0,6,00,0B,00,00,02,7A,00,00,
31537912,1801D08F,true,Rx,0,8,00,8C,00,5F,03,00,00,47,
31538142,00000112,false,Rx,0,8,FA,1F,76,0B,86,01,65,49,
31547979,00000112,false,Rx,0,8,FA,1F,76,0B,86,01,65,49,
31548229,0000003C,false,Rx,0,8,FF,5F,00,00,00,00,FF,FF,
31548411,000001A1,false,Rx,0,5,7C,CB,00,00,8A,00,00,00,
31548657,000002FA,false,Rx,0,8,FD,FF,05,FF,FF,FF,FF,FF,
31548880,0000012F,false,Rx,0,8,F5,28,86,1D,F1,35,30,80,
31549114,000002F1,false,Rx,0,8,36,10,7D,60,09,08,07,A0,
31549360,0000003F,false,Rx,0,8,00,00,00,80,00,80,64,CE,
31549605,000003E9,false,Rx,0,8,FE,FF,00,00,00,00,00,00,
31549839,00000431,false,Rx,0,8,CA,FF,0B,02,69,26,F3,4B,
31550063,00000432,false,Rx,0,8,2C,E2,10,A3,4E,FF,02,FF,
31550319,00000510,false,Rx,0,8,40,10,20,00,00,00,00,00,
31550564,0000051A,false,Rx,0,8,00,00,00,00,50,00,00,1A,
31550767,00000521,false,Rx,0,6,00,0C,00,00,02,6F,00,00,
31551012,00000540,false,Rx,0,8,00,00,00,00,FD,3C,FF,40,
31558001,00000112,false,Rx,0,8,FA,1F,76,0B,86,01,65,49,
31559995,00000523,false,Rx,0,6,02,0A,00,04,7A,18,00,00,
31560813,0000039D,false,Rx,0,5,23,5A,01,28,00,00,00,00,
31561026,00000524,false,Rx,0,6,03,0A,00,00,00,06,00,00,
31567999,00000112,false,Rx,0,8,FA,1F,76,0B,86,01,65,49,
31568176,000001A1,false,Rx,0,5,7C,CB,00,00,8A,00,00,00,
31569040,00000521,false,Rx,0,6,00,0D,00,00,02,6C,00,00,
31575220,00000100,false,Rx,0,8,01,00,00,00,3D,09,75,12,
31575473,00000101,false,Rx,0,8,00,00,00,00,00,00,00,00,
31578001,00000112,false,Rx,0,8,FA,1F,76,0B,86,01,65,49,
31581994,00000522,false,Rx,0,6,01,0A,00,04,7A,24,00,00,
31582382,00000337,false,Rx,0,2,FF,FF,00,00,00,00,00,00,
31582668,000003B4,false,Rx,0,8,00,FF,30,F0,B8,FF,00,00,
31588001,00000112,false,Rx,0,8,FA,1F,76,0B,86,01,65,49,
31588189,000001A1,false,Rx,0,5,7C,CB,00,00,8A,00,00,00,
31588916,00000521,false,Rx,0,6,00,0E,00,00,02,7D,00,00,
31598009,00000112,false,Rx,0,8,FA,1F,76,0B,86,01,65,49,
31600752,0000039D,false,Rx,0,5,24,5B,01,28,00,00,00,00,
31602261,00000272,false,Rx,0,8,36,F7,71,11,FF,FF,FF,FF,
31608011,00000112,false,Rx,0,8,FA,1F,76,0B,86,01,65,49,
31608188,000001A1,false,Rx,0,5,7C,CB,00,00,8A,00,00,00,
31608990,00000521,false,Rx,0,6,00,0F,00,00,02,6F,00,00,
31618009,00000112,false,Rx,0,8,FA,1F,76,0B,86,01,65,49,
31619993,00000523,false,Rx,0,6,02,0B,00,04,7A,43,00,00,
31621020,00000524,false,Rx,0,6,03,0B,00,00,00,22,00,00,
31628020,00000112,false,Rx,0,8,FA,1F,76,0B,86,01,65,49,
31628198,000001A1,false,Rx,0,5,7C,CB,00,00,8A,00,00,00,
31629040,00000521,false,Rx,0,6,00,00,00,00,02,76,00,00,
31637913,1801D08F,true,Rx,0,8,00,8C,00,5F,03,00,00,47,
31638142,00000112,false,Rx,0,8,FA,1F,76,0B,86,01,65,49,
31640757,0000039D,false,Rx,0,5,25,5C,01,28,00,00,00,00,
31641982,00000522,false,Rx,0,6,01,0B,00,04,7A,1C,00,00,
31648018,00000112,false,Rx,0,8,FA,1F,76,0B,86,01,65,49,
31648269,0000003C,false,Rx,0,8,FF,5F,00,00,00,00,FF,FF,
31648516,0000003F,false,Rx,0,8,00,00,00,C0,00,C0,64,C0,
31648739,0000012F,false,Rx,0,8,F5,28,86,1D,F1,35,30,80,
31648921,000001A1,false,Rx,0,5,7C,CB,00,00,8A,00,00,00,
31649164,000002F1,false,Rx,0,8,36,10,7D,60,09,08,07,A0,
31649410,000003E9,false,Rx,0,8,FE,FF,00,00,00,00,00,00,
31649635,00000431,false,Rx,0,8,CA,FF,0B,02,69,26,F3,4B,
31649837,00000521,false,Rx,0,6,00,01,00,00,02,74,00,00,
31658030,00000112,false,Rx,0,8,FA,1F,76,0B,86,01,65,49,
31668036,00000112,false,Rx,0,8,FA,1F,76,0B,86,01,65,49,
31668224,000001A1,false,Rx,0,5,7C,CB,00,00,8A,00,00,00,
31668983,00000521,false,Rx,0,6,00,02,00,00,02,58,00,00,
31675215,00000100,false,Rx,0,8,01,00,00,00,3D,09,75,12,
31675467,00000101,false,Rx,0,8,00,00,00,00,00,00,00,00,
31678038,00000112,false,Rx,0,8,FA,1F,76,0B,86,01,65,49,
31679991,00000523,false,Rx,0,6,02,0C,00,04,7A,37,00,00,
31680803,0000039D,false,Rx,0,5,26,5D,01,28,00,00,00,00,
31681005,00000524,false,Rx,0,6,03,0C,00,00,00,06,00,00,
31688046,00000112,false,Rx,0,8,FA,1F,76,0B,86,01,65,49,
31688224,000001A1,false,Rx,0,5,7C,CB,00,00,8A,00,00,00,
31688458,00000351,false,Rx,0,8,20,0D,C8,00,DC,05,D3,0A,
31688693,00000355,false,Rx,0,8,27,00,64,00,86,01,00,00,
31688938,00000356,false,Rx,0,8,A6,72,FA,FF,E1,00,00,00,
31689141,00000521,false,Rx,0,6,00,03,00,00,02,89,00,00,
31690545,0000035A,false,Rx,0,8,00,00,00,00,00,00,00,00,
31690770,0000035E,false,Rx,0,8,53,49,4D,50,20,42,4D,53,
31692524,00000370,false,Rx,0,8,53,49,4D,50,20,45,43,4F,
31694549,00000373,false,Rx,0,8,8E,0D,AA,0D,27,01,28,01,
31696563,00000379,false,Rx,0,8,D2,00,00,00,01,00,00,00,
31698046,00000112,false,Rx,0,8,FA,1F,76,0B,86,01,65,49,
31698574,00000372,false,Rx,0,8,0E,00,00,00,00,00,00,00,
31701984,00000522,false,Rx,0,6,01,0C,00,04,7A,28,00,00,
31708052,00000112,false,Rx,0,8,FA,1F,76,0B,86,01,65,49,
31708229,000001A1,false,Rx,0,5,7C,CB,00,00,8A,00,00,00,
31708894,00000521,false,Rx,0,6,00,04,00,00,02,65,00,00,
31718059,00000112,false,Rx,0,8,FA,1F,76,0B,86,01,65,49,
31720847,0000039D,false,Rx,0,5,27,5E,01,28,00,00,00,00,
31728054,00000112,false,Rx,0,8,FA,1F,76,0B,86,01,65,49,
31728242,000001A1,false,Rx,0,5,7C,CB,00,00,8A,00,00,00,
31728980,00000521,false,Rx,0,6,00,05,00,00,02,8A,00,00,
31737893,1801D08F,true,Rx,0,8,00,8C,00,5F,03,00,00,47,
31738123,00000112,false,Rx,0,8,FA,1F,76,0B,86,01,65,49,
31739981,00000523,false,Rx,0,6,02,0D,00,04,7A,29,00,00,
31740992,00000524,false,Rx,0,6,03,0D,00,00,00,22,00,00,
31748060,00000112,false,Rx,0,8,FA,1F,76,0B,86,01,65,49,
31748249,000001A1,false,Rx,0,5,7C,CB,00,00,8A,00,00,00,
31748494,000002FA,false,Rx,0,8,FD,FF,05,FF,FF,FF,FF,FF,
31748696,00000328,false,Rx,0,6,B2,00,00,00,87,1E,00,00,
31748951,0000003C,false,Rx,0,8,FF,5F,00,00,00,00,FF,FF,
31749081,000003E8,false,Rx,0,2,F1,FF,00,00,00,00,00,00,
31749335,000003E9,false,Rx,0,8,FE,FF,00,00,00,00,00,00,
31749559,0000012F,false,Rx,0,8,F5,28,86,1D,F1,35,30,80,
31749794,000002F1,false,Rx,0,8,36,10,7D,60,09,08,07,A0,
31750039,0000003F,false,Rx,0,8,00,00,00,00,00,00,64,65,
31750274,000003F9,false,Rx,0,8,C0,F9,80,E0,43,3C,F3,FF,
31750499,00000431,false,Rx,0,8,CA,FF,0B,02,69,26,F3,4B,
31750734,00000432,false,Rx,0,8,2C,E2,10,A3,4E,FF,02,FF,
31750978,0000035D,false,Rx,0,8,02,00,88,08,00,00,20,F0,
31751223,00000510,false,Rx,0,8,40,10,20,00,00,00,00,00,
31751468,0000051A,false,Rx,0,8,00,00,00,00,50,00,00,1A,
31751672,00000521,false,Rx,0,6,00,06,00,00,02,70,00,00,
31751916,00000540,false,Rx,0,8,00,00,00,00,FD,3C,FF,40,
31758094,00000112,false,Rx,0,8,FA,1F,76,0B,86,01,65,49,
31760774,0000039D,false,Rx,0,5,28,5F,01,28,00,00,00,00,
31761958,00000522,false,Rx,0,6,01,0D,00,04,7A,11,00,00,
31768094,00000112,false,Rx,0,8,FA,1F,75,0B,86,01,65,49,
31768273,000001A1,false,Rx,0,5,7C,CB,00,00,8A,00,00,00,
31768959,00000521,false,Rx,0,6,00,07,00,00,02,5C,00,00,
31775213,00000100,false,Rx,0,8,01,00,00,00,3D,09,75,12,
31775464,00000101,false,Rx,0,8,00,00,00,00,00,00,00,00,
31778097,00000112,false,Rx,0,8,FA,1F,75,0B,86,01,65,49,
31782577,000003B4,false,Rx,0,8,00,FF,30,F0,B8,FF,00,00,
31788096,00000112,false,Rx,0,8,FA,1F,75,0B,86,01,65,49,
31788275,000001A1,false,Rx,0,5,7C,CB,00,00,8A,00,00,00,
31788971,00000521,false,Rx,0,6,00,08,00,00,02,70,00,00,
31798104,00000112,false,Rx,0,8,FA,1F,75,0B,86,01,65,49,
31799973,00000523,false,Rx,0,6,02,0E,00,04,7A,3F,00,00,
31800759,0000039D,false,Rx,0,5,19,50,01,28,00,00,00,00,
31800982,00000524,false,Rx,0,6,03,0E,00,00,00,2F,00,00,
31802600,00000272,false,Rx,0,8,6A,F8,71,11,FF,FF,FF,FF,
31808108,00000112,false,Rx,0,8,FA,1F,75,0B,86,01,65,49,
31808287,000001A1,false,Rx,0,5,7C,CB,00,00,8A,00,00,00,
31809004,00000521,false,Rx,0,6,00,09,00,00,02,5E,00,00,
31818107,00000112,false,Rx,0,8,FA,1F,75,0B,86,01,65,49,
31821958,00000522,false,Rx,0,6,01,0E,00,04,7A,15,00,00,
31828109,00000112,false,Rx,0,8,FA,1F,75,0B,86,01,65,49,
31828288,000001A1,false,Rx,0,5,7C,CB,00,00,8A,00,00,00,
31828953,00000521,false,Rx,0,6,00,0A,00,00,02,8E,00,00,
31837896,1801D08F,true,Rx,0,8,00,8C,00,5F,03,00,00,47,
31838127,00000112,false,Rx,0,8,FA,1F,75,0B,86,01,65,49,
31840793,0000039D,false,Rx,0,5,1A,51,01,28,00,00,00,00,
31848121,00000112,false,Rx,0,8,FA,1F,75,0B,86,01,65,49,
31848372,0000003C,false,Rx,0,8,FF,5F,00,00,00,00,FF,FF,
31848607,0000003F,false,Rx,0,8,00,00,00,40,00,40,64,6B,
31848841,0000012F,false,Rx,0,8,F5,28,86,1D,F1,35,30,80,
31849024,000001A1,false,Rx,0,5,7C,CB,00,00,8A,00,00,00,
31849257,000002F1,false,Rx,0,8,36,10,7D,60,09,08,07,A0,
31849503,000003E9,false,Rx,0,8,FE,FF,00,00,00,00,00,00,
31849728,00000431,false,Rx,0,8,CA,FF,0B,02,69,26,F3,4B,
31849930,00000521,false,Rx,0,6,00,0B,00,00,02,6F,00,00,
31858124,00000112,false,Rx,0,8,FA,1F,75,0B,86,01,65,49,
31859960,00000523,false,Rx,0,6,02,0F,00,04,7A,29,00,00,
31860976,00000524,false,Rx,0,6,03,0F,00,00,00,22,00,00,
31868135,00000112,false,Rx,0,8,FA,1F,75,0B,86,01,65,49,
31868313,000001A1,false,Rx,0,5,7C,CB,00,00,8A,00,00,00,
31868998,00000521,false,Rx,0,6,00,0C,00,00,02,7D,00,00,
31871045,000005BD,false,Rx,0,8,B4,80,00,00,00,00,00,00,
31875207,00000100,false,Rx,0,8,01,00,00,00,3D,09,75,12,
31875458,00000101,false,Rx,0,8,00,00,00,00,00,00,00,00,
31878135,00000112,false,Rx,0,8,FA,1F,75,0B,86,01,65,49,
31880789,0000039D,false,Rx,0,5,1B,52,01,28,00,00,00,00,
31881944,00000522,false,Rx,0,6,01,0F,00,04,79,FD,00,00,
31888140,00000112,false,Rx,0,8,FA,1F,75,0B,86,01,65,49,
31888317,000001A1,false,Rx,0,5,7C,CB,00,00,8A,00,00,00,
31888867,00000521,false,Rx,0,6,00,0D,00,00,02,8A,00,00,
31898138,00000112,false,Rx,0,8,FA,1F,75,0B,86,01,65,49,
31908144,00000112,false,Rx,0,8,FA,1F,75,0B,86,01,65,49,
31908321,000001A1,false,Rx,0,5,7C,CB,00,00,8A,00,00,00,
31908860,00000521,false,Rx,0,6,00,0E,00,00,02,6E,00,00,
31918152,00000112,false,Rx,0,8,FA,1F,75,0B,86,01,65,49,
31919957,00000523,false,Rx,0,6,02,00,00,04,7A,12,00,00,
31920827,0000039D,false,Rx,0,5,1C,53,01,28,00,00,00,00,
31921029,00000524,false,Rx,0,6,03,00,FF,FF,FF,E4,00,00,
31928149,00000112,false,Rx,0,8,FA,1F,75,0B,86,01,65,49,
31928337,000001A1,false,Rx,0,5,7C,CB,00,00,8A,00,00,00,
31928981,00000521,false,Rx,0,6,00,0F,00,00,02,69,00,00,
31937904,1801D08F,true,Rx,0,8,00,8C,00,5F,03,00,00,47,
31938156,00000112,false,Rx,0,8,FA,1F,75,0B,86,01,65,49,
31941944,00000522,false,Rx,0,6,01,00,00,04,7A,2A,00,00,
31948160,00000112,false,Rx,0,8,FA,1F,76,0B,86,01,65,49,
31948410,0000003C,false,Rx,0,8,FF,5F,00,00,00,00,FF,FF,
31948593,000001A1,false,Rx,0,5,7C,CB,00,00,8A,00,00,00,
31948838,000002FA,false,Rx,0,8,FD,FF,05,FF,FF,FF,FF,FF,
31949062,0000012F,false,Rx,0,8,F5,28,86,1D,F1,35,30,80,
31949295,000002F1,false,Rx,0,8,36,10,7D,60,09,08,07,A0,
31949542,0000003F,false,Rx,0,8,00,00,00,80,00,80,64,CE,
31949797,000003E9,false,Rx,0,8,FE,FF,00,00,00,00,00,00,
31950021,00000431,false,Rx,0,8,CA,FF,0B,02,69,26,F3,4B,
31950245,00000432,false,Rx,0,8,2C,E2,10,A3,4E,FF,02,FF,
31950501,00000510,false,Rx,0,8,40,10,20,00,00,00,00,00,
31950746,0000051A,false,Rx,0,8,00,00,00,00,50,00,00,1A,
31950948,00000521,false,Rx,0,6,00,00,00,00,02,5A,00,00,
31951194,00000540,false,Rx,0,8,00,00,00,00,FD,3C,FF,40,
31958184,00000112,false,Rx,0,8,FA,1F,76,0B,86,01,65,49,
31960737,0000039D,false,Rx,0,5,1D,54,01,28,00,00,00,00,
31968177,00000112,false,Rx,0,8,FA,1F,76,0B,86,01,65,49,
31968365,000001A1,false,Rx,0,5,7C,CB,00,00,8A,00,00,00,
31968935,00000521,false,Rx,0,6,00,01,00,00,02,67,00,00,
31975199,00000100,false,Rx,0,8,01,00,00,00,3D,09,75,12,
31975450,00000101,false,Rx,0,8,00,00,00,00,00,00,00,00,
31978190,00000112,false,Rx,0,8,FA,1F,76,0B,86,01,65,49,
31979921,00000523,false,Rx,0,6,02,01,00,04,7A,18,00,00,
31980964,00000524,false,Rx,0,6,03,01,FF,FF,FF,F0,00,00,
31982918,000003B4,false,Rx,0,8,00,FF,30,F0,B8,FF,00,00,
31988192,00000112,false,Rx,0,8,FA,1F,76,0B,86,01,65,49,
31988370,000001A1,false,Rx,0,5,7C,CB,00,00,8A,00,00,00,
31988972,00000521,false,Rx,0,6,00,02,00,00,02,51,00,00,
31998191,00000112,false,Rx,0,8,FB,1F,76,0B,86,01,65,49,
32000745,0000039D,false,Rx,0,5,1E,55,01,28,00,00,00,00,
32001919,00000522,false,Rx,0,6,01,01,00,04,7A,1A,00,00,
32003156,00000272,false,Rx,0,8,37,F9,71,11,FF,FF,FF,FF,
32008191,00000112,false,Rx,0,8,FB,1F,76,0B,86,01,65,49,
32008379,000001A1,false,Rx,0,5,7C,CB,00,00,8A,00,00,00,
32008845,00000521,false,Rx,0,6,00,03,00,00,02,5B,00,00,
32018200,00000112,false,Rx,0,8,FA,1F,76,0B,86,01,65,49,
32028195,00000112,false,Rx,0,8,FA,1F,76,0B,86,01,65,49,
32028383,000001A1,false,Rx,0,5,7C,CB,00,00,8A,00,00,00,
32028923,00000521,false,Rx,0,6,00,04,00,00,02,6A,00,00,
32037878,1801D08F,true,Rx,0,8,00,8C,00,5F,03,00,00,47,
32038202,00000112,false,Rx,0,8,FA,1F,76,0B,86,01,65,49,
32039917,00000523,false,Rx,0,6,02,02,00,04,7A,3D,00,00,
32040778,0000039D,false,Rx,0,5,1F,56,01,28,00,00,00,00,
32040992,00000524,false,Rx,0,6,03,02,00,00,00,00,00,00,
32048207,00000112,false,Rx,0,8,FA,1F,76,0B,86,01,65,49,
32048458,0000003C,false,Rx,0,8,FF,5F,00,00,00,00,FF,FF,
32048705,0000003F,false,Rx,0,8,00,00,00,C0,00,C0,64,C0,
32048928,0000012F,false,Rx,0,8,F5,28,86,1D,F1,35,30,80,
32049109,000001A1,false,Rx,0,5,7C,CB,00,00,8A,00,00,00,
32049344,000002F1,false,Rx,0,8,36,10,7D,60,09,08,07,A0,
32049590,000003E9,false,Rx,0,8,FE,FF,00,00,00,00,00,00,
32049813,00000431,false,Rx,0,8,CA,FF,0B,02,69,26,F3,4B,
32050015,00000521,false,Rx,0,6,00,05,00,00,02,87,00,00,
32058218,00000112,false,Rx,0,8,FA,1F,76,0B,86,01,65,49,
32061912,00000522,false,Rx,0,6,01,02,00,04,7A,0D,00,00,
32068222,00000112,false,Rx,0,8,FA,1F,75,0B,86,01,65,49,
32068400,000001A1,false,Rx,0,5,7C,CB,00,00,8A,00,00,00,
32068835,00000521,false,Rx,0,6,00,06,00,00,02,75,00,00,
32075191,00000100,false,Rx,0,8,01,00,00,00,3D,09,75,12,
32075443,00000101,false,Rx,0,8,00,00,00,00,00,00,00,00,
32078224,00000112,false,Rx,0,8,FA,1F,75,0B,86,01,65,49,
32080807,0000039D,false,Rx,0,5,20,57,01,28,00,00,00,00,
32081051,0000035D,false,Rx,0,8,00,00,00,00,00,00,00,00,
32088228,00000112,false,Rx,0,8,FA,1F,75,0B,86,01,65,49,
32088406,000001A1,false,Rx,0,5,7C,CB,00,00,8A,00,00,00,
32088830,00000521,false,Rx,0,6,00,07,00,00,02,5D,00,00,
32098226,00000112,false,Rx,0,8,FA,1F,75,0B,86,01,65,49,
32099915,00000523,false,Rx,0,6,02,03,00,04,7A,1C,00,00,
32100933,00000524,false,Rx,0,6,03,03,00,00,00,1A,00,00,
32108239,00000112,false,Rx,0,8,FA,1F,75,0B,86,01,65,49,
32108416,000001A1,false,Rx,0,5,7C,CB,00,00,8A,00,00,00,
32108956,00000521,false,Rx,0,6,00,08,00,00,02,72,00,00,
32118237,00000112,false,Rx,0,8,FA,1F,75,0B,86,01,65,49,
32120781,0000039D,false,Rx,0,5,21,58,01,28,00,00,00,00,
32121902,00000522,false,Rx,0,6,01,03,00,04,7A,22,00,00,
32128238,00000112,false,Rx,0,8,FA,1F,76,0B,86,01,65,49,
32128427,000001A1,false,Rx,0,5,7C,CB,00,00,8A,00,00,00,
32128903,00000521,false,Rx,0,6,00,09,00,00,02,65,00,00,
32137889,1801D08F,true,Rx,0,8,00,8C,00,5F,03,00,00,47,
32138244,00000112,false,Rx,0,8,FA,1F,76,0B,86,01,65,49,
32148250,00000112,false,Rx,0,8,FA,1F,76,0B,86,01,65,49,
32148503,0000003C,false,Rx,0,8,FF,5F,00,00,00,00,FF,FF,
32148685,000001A1,false,Rx,0,5,7C,CB,00,00,8A,00,00,00,
32148928,000002FA,false,Rx,0,8,FD,FF,05,FF,FF,FF,FF,FF,
32149153,0000012F,false,Rx,0,8,F5,28,86,1D,F1,35,30,80,
32149387,000002F1,false,Rx,0,8,36,10,7D,60,09,08,07,A0,
32149643,0000003F,false,Rx,0,8,00,00,00,00,00,00,64,65,
32149887,000003E9,false,Rx,0,8,FE,FF,00,00,00,00,00,00,
32150112,00000431,false,Rx,0,8,CA,FF,0B,02,69,26,F3,4B,
32150346,00000432,false,Rx,0,8,2C,E2,10,A3,4E,FF,02,FF,
32150592,00000510,false,Rx,0,8,40,10,20,00,00,00,00,00,
32150838,0000051A,false,Rx,0,8,00,00,00,00,50,00,00,1A,
32151040,00000521,false,Rx,0,6,00,0A,00,00,02,6F,00,00,
32151284,00000540,false,Rx,0,8,00,00,00,00,FD,3C,FF,40,
32158265,00000112,false,Rx,0,8,FA,1F,76,0B,86,01,65,49,
32159904,00000523,false,Rx,0,6,02,04,00,04,7A,33,00,00,
32160743,0000039D,false,Rx,0,5,22,59,01,28,00,00,00,00,
32160955,00000524,false,Rx,0,6,03,04,00,00,00,18,00,00,
32168272,00000112,false,Rx,0,8,FA,1F,76,0B,86,01,65,49,
32168451,000001A1,false,Rx,0,5,7C,CB,00,00,8A,00,00,00,
32168938,00000521,false,Rx,0,6,00,0B,00,00,02,5B,00,00,
32175188,00000100,false,Rx,0,8,01,00,00,00,3D,09,75,12,
32175440,00000101,false,Rx,0,8,00,00,00,00,00,00,00,00,
32178274,00000112,false,Rx,0,8,FA,1F,76,0B,86,01,65,49,
32181899,00000522,false,Rx,0,6,01,04,00,04,7A,2E,00,00,
32183462,000003B4,false,Rx,0,8,00,FF,30,F0,B8,FF,00,00,
32188271,00000112,false,Rx,0,8,FA,1F,76,0B,86,01,65,49,
32188461,000001A1,false,Rx,0,5,7C,CB,00,00,8A,00,00,00,
32188810,00000521,false,Rx,0,6,00,0C,00,00,02,65,00,00,
32193266,000003C3,false,Rx,0,8,87,1C,69,9A,20,08,82,20,
32198279,00000112,false,Rx,0,8,FA,1F,76,0B,86,01,65,49,
32200781,0000039D,false,Rx,0,5,23,5A,01,28,00,00,00,00,
32201021,0000032D,false,Rx,0,8,0B,00,04,03,03,00,00,00,
32203277,00000272,false,Rx,0,8,D0,FA,71,11,FF,FF,FF,FF,
32208282,00000112,false,Rx,0,8,FA,1F,76,0B,86,01,65,49,
32208471,000001A1,false,Rx,0,5,7C,CB,00,00,8A,00,00,00,
32208893,00000521,false,Rx,0,6,00,0D,00,00,02,74,00,00,
32218290,00000112,false,Rx,0,8,FA,1F,76,0B,86,01,65,49,
32219895,00000523,false,Rx,0,6,02,05,00,04,7A,14,00,00,
32220922,00000524,false,Rx,0,6,03,05,FF,FF,FF,F2,00,00,
32228292,00000112,false,Rx,0,8,FA,1F,76,0B,86,01,65,49,
32228471,000001A1,false,Rx,0,5,7C,CB,00,00,8A,00,00,00,
32228934,00000521,false,Rx,0,6,00,0E,00,00,02,60,00,00,
32237878,1801D08F,true,Rx,0,8,00,8C,00,5F,03,00,00,47,
32238298,00000112,false,Rx,0,8,FA,1F,76,0B,86,01,65,49,
32240764,0000039D,false,Rx,0,5,24,5B,01,28,00,00,00,00,
32241880,00000522,false,Rx,0,6,01,05,00,04,7A,22,00,00,
32248298,00000112,false,Rx,0,8,FA,1F,76,0B,86,01,65,49,
32248550,0000003C,false,Rx,0,8,FF,5F,00,00,00,00,FF,FF,
32248794,0000003F,false,Rx,0,8,00,00,00,40,00,40,64,6B,
32249019,0000012F,false,Rx,0,8,F5,28,86,1D,F1,35,30,80,
32249201,000001A1,false,Rx,0,5,7C,CB,00,00,8A,00,00,00,
32249434,000002F1,false,Rx,0,8,36,10,7D,60,09,08,07,A0,
32249679,000003E9,false,Rx,0,8,FE,FF,00,00,00,00,00,00,
32249904,00000431,false,Rx,0,8,CA,FF,0B,02,69,26,F3,4B,
32250107,00000521,false,Rx,0,6,00,0F,00,00,02,76,00,00,
32258311,00000112,false,Rx,0,8,FA,1F,76,0B,86,01,65,49,
32268306,00000112,false,Rx,0,8,FA,1F,76,0B,86,01,65,49,
32268496,000001A1,false,Rx,0,5,7C,CB,00,00,8A,00,00,00,
32268897,00000521,false,Rx,0,6,00,00,00,00,02,73,00,00,
32275159,00000100,false,Rx,0,8,01,00,00,00,3D,09,75,12,
32275410,00000101,false,Rx,0,8,00,00,00,00,00,00,00,00,
32278317,00000112,false,Rx,0,8,FA,1F,76,0B,86,01,65,49,
32279892,00000523,false,Rx,0,6,02,06,00,04,7A,45,00,00,
32280787,0000039D,false,Rx,0,5,25,5C,01,28,00,00,00,00,
32280989,00000524,false,Rx,0,6,03,06,FF,FF,FF,F0,00,00,
32288316,00000112,false,Rx,0,8,FA,1F,76,0B,86,01,65,49,
32288505,000001A1,false,Rx,0,5,7C,CB,00,00,8A,00,00,00,
32288938,00000521,false,Rx,0,6,00,01,00,00,02,5D,00,00,
32298324,00000112,false,Rx,0,8,FA,1F,76,0B,86,01,65,49,
32301879,00000522,false,Rx,0,6,01,06,00,04,7A,24,00,00,
32308327,00000112,false,Rx,0,8,FA,1F,76,0B,86,01,65,49,
32308505,000001A1,false,Rx,0,5,7C,CB,00,00,8A,00,00,00,
32308802,00000521,false,Rx,0,6,00,02,00,00,02,5F,00,00,
32318324,00000112,false,Rx,0,8,FA,1F,76,0B,86,01,65,49,
32320413,00000351,false,Rx,0,8,20,0D,C8,00,DC,05,D3,0A,
32320655,00000355,false,Rx,0,8,27,00,64,00,86,01,00,00,
32320889,00000356,false,Rx,0,8,A5,72,FA,FF,E1,00,00,00,
32321070,0000039D,false,Rx,0,5,26,5D,01,28,00,00,00,00,
32322785,0000035A,false,Rx,0,8,00,00,00,00,00,00,00,00,
32323009,0000035E,false,Rx,0,8,53,49,4D,50,20,42,4D,53,
32324763,00000370,false,Rx,0,8,53,49,4D,50,20,45,43,4F,
32326780,00000373,false,Rx,0,8,8E,0D,AB,0D,27,01,28,01,
32328326,00000112,false,Rx,0,8,FA,1F,76,0B,86,01,65,49,
32328507,000001A1,false,Rx,0,5,7C,CB,00,00,8A,00,00,00,
32328803,00000379,false,Rx,0,8,D2,00,00,00,01,00,00,00,
32329007,00000521,false,Rx,0,6,00,03,00,00,02,67,00,00,
32330804,00000372,false,Rx,0,8,0E,00,00,00,00,00,00,00,
32337888,1801D08F,true,Rx,0,8,00,8C,00,5F,03,00,00,47,
32338339,00000112,false,Rx,0,8,FA,1F,76,0B,86,01,65,49,
32339876,00000523,false,Rx,0,6,02,07,00,04,7A,27,00,00,
32340894,00000524,false,Rx,0,6,03,07,00,00,00,02,00,00,
32348339,00000112,false,Rx,0,8,FA,1F,76,0B,86,01,65,49,
32348582,0000003C,false,Rx,0,8,FF,5F,00,00,00,00,FF,FF,
32348764,000001A1,false,Rx,0,5,7C,CB,00,00,8A,00,00,00,
32349019,000002FA,false,Rx,0,8,FD,FF,05,FF,FF,FF,FF,FF,
32349243,0000012F,false,Rx,0,8,F5,28,86,1D,F1,35,30,80,
32349477,000002F1,false,Rx,0,8,36,10,7D,60,09,08,07,A0,
32349723,0000003F,false,Rx,0,8,00,00,00,80,00,80,64,CE,
32349967,000003E9,false,Rx,0,8,FE,FF,00,00,00,00,00,00,
32350201,00000431,false,Rx,0,8,CA,FF,0B,02,69,26,F3,4B,
32350426,00000432,false,Rx,0,8,2C,E2,10,A3,4E,FF,02,FF,
32350682,00000510,false,Rx,0,8,40,10,20,00,00,00,00,00,
32350926,0000051A,false,Rx,0,8,00,00,00,00,50,00,00,1A,
32351130,00000521,false,Rx,0,6,00,04,00,00,02,71,00,00,
32351374,00000540,false,Rx,0,8,00,00,00,00,FD,3C,FF,40,
32358362,00000112,false,Rx,0,8,FA,1F,76,0B,86,01,65,49,
32360726,0000039D,false,Rx,0,5,27,5E,01,28,00,00,00,00,
32361880,00000522,false,Rx,0,6,01,07,00,04,7A,0F,00,00,
32368363,00000112,false,Rx,0,8,FA,1F,75,0B,86,01,65,49,
32368541,000001A1,false,Rx,0,5,7C,CB,00,00,8A,00,00,00,
32368787,00000521,false,Rx,0,6,00,05,00,00,02,67,00,00,
32375152,00000100,false,Rx,0,8,01,00,00,00,3D,09,75,12,
32375402,00000101,false,Rx,0,8,00,00,00,00,00,00,00,00,
32378363,00000112,false,Rx,0,8,FA,1F,75,0B,86,01,65,49,
32383593,000003B4,false,Rx,0,8,00,FF,30,F0,B8,FF,00,00,
32388362,00000112,false,Rx,0,8,FA,1F,75,0B,86,01,65,49,
32388551,000001A1,false,Rx,0,5,7C,CB,00,00,8A,00,00,00,
32388870,00000521,false,Rx,0,6,00,06,00,00,02,64,00,00,
32398371,00000112,false,Rx,0,8,FA,1F,75,0B,86,01,65,49,
32399872,00000523,false,Rx,0,6,02,08,00,04,7A,5A,00,00,
32400774,0000039D,false,Rx,0,5,28,5F,01,28,00,00,00,00,
32400986,00000524,false,Rx,0,6,03,08,FF,FF,FF,F8,00,00,
32403624,00000272,false,Rx,0,8,8D,FB,71,11,FF,FF,FF,FF,
32408378,00000112,false,Rx,0,8,FA,1F,75,0B,86,01,65,49,
32408557,000001A1,false,Rx,0,5,7C,CB,00,00,8A,00,00,00,
32408906,00000521,false,Rx,0,6,00,07,00,00,02,78,00,00,
32410850,0000035D,false,Rx,0,8,01,00,00,00,00,00,00,00,
32418376,00000112,false,Rx,0,8,FA,1F,75,0B,86,01,65,49,
32421860,00000522,false,Rx,0,6,01,08,00,04,7A,26,00,00,
32428380,00000112,false,Rx,0,8,FA,1F,76,0B,86,01,65,49,
32428559,000001A1,false,Rx,0,5,7C,CB,00,00,8A,00,00,00,
32428783,00000521,false,Rx,0,6,00,08,00,00,02,73,00,00,
32437893,1801D08F,true,Rx,0,8,00,8C,00,5F,03,00,00,47,
32438386,00000112,false,Rx,0,8,FA,1F,76,0B,86,01,65,49,
32440790,0000039D,false,Rx,0,5,19,50,01,28,00,00,00,00,
32448381,00000112,false,Rx,0,8,FA,1F,76,0B,86,01,65,49,
32448634,0000003C,false,Rx,0,8,FF,5F,00,00,00,00,FF,FF,
32448880,0000003F,false,Rx,0,8,00,00,00,C0,00,C0,64,C0,
32449104,0000012F,false,Rx,0,8,F5,28,86,1D,F1,35,30,80,
32449285,000001A1,false,Rx,0,5,7C,CB,00,00,8A,00,00,00,
32449521,000002F1,false,Rx,0,8,36,10,7D,60,09,08,07,A0,
32449776,000003E9,false,Rx,0,8,FE,FF,00,00,00,00,00,00,
32449999,00000431,false,Rx,0,8,CA,FF,0B,02,69,26,F3,4B,
32450203,00000521,false,Rx,0,6,00,09,00,00,02,7A,00,00,
32458395,00000112,false,Rx,0,8,FA,1F,76,0B,86,01,65,49,
32459854,00000523,false,Rx,0,6,02,09,00,04,7A,08,00,00,
32460881,00000524,false,Rx,0,6,03,09,00,00,00,02,00,00,
32468396,00000112,false,Rx,0,8,FA,1F,76,0B,86,01,65,49,
32468587,000001A1,false,Rx,0,5,7C,CB,00,00,8A,00,00,00,
32468905,00000521,false,Rx,0,6,00,0A,00,00,02,6C,00,00,
32475156,00000100,false,Rx,0,8,01,00,00,00,3D,09,75,12,
32475407,00000101,false,Rx,0,8,00,00,00,00,00,00,00,00,
32478400,00000112,false,Rx,0,8,FA,1F,76,0B,86,01,65,49,
32480740,0000039D,false,Rx,0,5,1A,51,01,28,00,00,00,00,
32481852,00000522,false,Rx,0,6,01,09,00,04,7A,32,00,00,
32488407,00000112,false,Rx,0,8,FA,1F,76,0B,86,01,65,49,
32488585,000001A1,false,Rx,0,5,7C,CB,00,00,8A,00,00,00,
32488788,00000521,false,Rx,0,6,00,0B,00,00,02,78,00,00,
32498405,00000112,false,Rx,0,8,FA,1F,76,0B,86,01,65,49,
32508413,00000112,false,Rx,0,8,FA,1F,76,0B,86,01,65,49,
32508593,000001A1,false,Rx,0,5,7C,CB,00,00,8A,00,00,00,
32508847,00000521,false,Rx,0,6,00,0C,00,00,02,66,00,00,
32518414,00000112,false,Rx,0,8,FA,1F,76,0B,86,01,65,49,
32519852,00000523,false,Rx,0,6,02,0A,00,04,7A,25,00,00,
32520764,0000039D,false,Rx,0,5,1B,52,01,28,00,00,00,00,
32520968,00000524,false,Rx,0,6,03,0A,FF,FF,FF,EA,00,00,
32528420,00000112,false,Rx,0,8,FA,1F,76,0B,86,01,65,49,
32528600,000001A1,false,Rx,0,5,7C,CB,00,00,8A,00,00,00,
32528885,00000521,false,Rx,0,6,00,0D,00,00,02,5F,00,00,
32537870,1801D08F,true,Rx,0,8,00,8C,00,5F,03,00,00,47,
32538425,00000112,false,Rx,0,8,FA,1F,76,0B,86,01,65,49,
32541837,00000522,false,Rx,0,6,01,0A,00,04,7A,2E,00,00,
32548430,00000112,false,Rx,0,8,FA,1F,76,0B,86,01,65,49,
32548673,0000003C,false,Rx,0,8,FF,5F,00,00,00,00,FF,FF,
32548854,000001A1,false,Rx,0,5,7C,CB,00,00,8A,00,00,00,
32549108,000002FA,false,Rx,0,8,FD,FF,05,FF,FF,FF,FF,FF,
32549333,0000012F,false,Rx,0,8,F5,28,86,1D,F1,35,30,80,
32549568,000002F1,false,Rx,0,8,36,10,7D,60,09,08,07,A0,
32549812,0000003F,false,Rx,0,8,00,00,00,00,00,00,64,65,
32550058,000003E9,false,Rx,0,8,FE,FF,00,00,00,00,00,00,
32550292,00000431,false,Rx,0,8,CA,FF,0B,02,69,26,F3,4B,
32550516,00000432,false,Rx,0,8,2C,E2,10,A3,4E,FF,02,FF,
32550771,00000510,false,Rx,0,8,40,10,20,00,00,00,00,00,
32551017,0000051A,false,Rx,0,8,00,00,00,00,50,00,00,1A,
32551220,00000521,false,Rx,0,6,00,0E,00,00,02,65,00,00,
32551464,00000540,false,Rx,0,8,00,00,00,00,FD,3C,FF,40,
32558442,00000112,false,Rx,0,8,FA,1F,76,0B,86,01,65,49,
32560763,0000039D,false,Rx,0,5,1C,53,01,28,00,00,00,00,
32568444,00000112,false,Rx,0,8,FA,1F,76,0B,86,01,65,49,
32568634,000001A1,false,Rx,0,5,7C,CB,00,00,8A,00,00,00,
32568836,00000521,false,Rx,0,6,00,0F,00,00,02,5D,00,00,
32575159,00000100,false,Rx,0,8,01,00,00,00,3D,09,75,12,
32575411,00000101,false,Rx,0,8,00,00,00,00,00,00,00,00,
32578454,00000112,false,Rx,0,8,FA,1F,76,0B,86,01,65,49,
32579849,00000523,false,Rx,0,6,02,0B,00,04,7A,0A,00,00,
32580861,00000524,false,Rx,0,6,03,0B,00,00,00,08,00,00,
32583836,00000337,false,Rx,0,2,FF,FF,00,00,00,00,00,00,
32584106,000003B4,false,Rx,0,8,00,FF,30,F0,B8,FF,00,00,
32588453,00000112,false,Rx,0,8,FA,1F,76,0B,86,01,65,49,
32588642,000001A1,false,Rx,0,5,7C,CB,00,00,8A,00,00,00,
32588886,00000521,false,Rx,0,6,00,00,00,00,02,67,00,00,
32598461,00000112,false,Rx,0,8,FA,1F,76,0B,86,01,65,49,
32600752,0000039D,false,Rx,0,5,1D,54,01,28,00,00,00,00,
32601831,00000522,false,Rx,0,6,01,0B,00,04,79,EE,00,00,
32604170,00000272,false,Rx,0,8,03,FC,71,11,FF,FF,FF,FF,
32608461,00000112,false,Rx,0,8,FA,1F,75,0B,86,01,65,49,
32608640,000001A1,false,Rx,0,5,7C,CB,00,00,8A,00,00,00,
32608853,00000521,false,Rx,0,6,00,01,00,00,02,7C,00,00,
32618472,00000112,false,Rx,0,8,FA,1F,75,0B,86,01,65,49,
32628467,00000112,false,Rx,0,8,FA,1F,75,0B,86,01,65,49,
32628645,000001A1,false,Rx,0,5,7C,CB,00,00,8A,00,00,00,
32628858,00000521,false,Rx,0,6,00,02,00,00,02,78,00,00,
32637872,1801D08F,true,Rx,0,8,00,8C,00,5F,03,00,00,47,
32638471,00000112,false,Rx,0,8,FA,1F,75,0B,86,01,65,49,
32639837,00000523,false,Rx,0,6,02,0C,00,04,7A,58,00,00,
32640763,0000039D,false,Rx,0,5,1E,55,01,28,00,00,00,00,
32640976,00000524,false,Rx,0,6,03,0C,00,00,00,0E,00,00,
32648475,00000112,false,Rx,0,8,FA,1F,75,0B,86,01,65,49,
32648726,0000003C,false,Rx,0,8,FF,5F,00,00,00,00,FF,FF,
32648971,0000003F,false,Rx,0,8,00,00,00,40,00,40,64,6B,
32649195,0000012F,false,Rx,0,8,F5,28,86,1D,F1,35,30,80,
32649377,000001A1,false,Rx,0,5,7C,CB,00,00,8A,00,00,00,
32649611,000002F1,false,Rx,0,8,36,10,7D,60,09,08,07,A0,
32649866,000003E9,false,Rx,0,8,FE,FF,00,00,00,00,00,00,
32650091,00000431,false,Rx,0,8,CA,FF,0B,02,69,26,F3,4B,
32650293,00000521,false,Rx,0,6,00,03,00,00,02,79,00,00,
32658486,00000112,false,Rx,0,8,FA,1F,75,0B,86,01,65,49,
32661819,00000522,false,Rx,0,6,01,0C,00,04,7A,03,00,00,
32668491,00000112,false,Rx,0,8,FA,1F,75,0B,86,01,65,49,
32668668,000001A1,false,Rx,0,5,7C,CB,00,00,8A,00,00,00,
32668880,00000521,false,Rx,0,6,00,04,00,00,02,70,00,00,
32675161,00000100,false,Rx,0,8,01,00,00,00,3D,09,75,12,
32675413,00000101,false,Rx,0,8,00,00,00,00,00,00,00,00,
32678499,00000112,false,Rx,0,8,FA,1F,75,0B,86,01,65,49,
32680713,0000039D,false,Rx,0,5,1F,56,01,28,00,00,00,00,
32688498,00000112,false,Rx,0,8,FA,1F,75,0B,86,01,65,49,
32688676,000001A1,false,Rx,0,5,7C,CB,00,00,8A,00,00,00,
32688877,00000521,false,Rx,0,6,00,05,00,00,02,6F,00,00,
32698496,00000112,false,Rx,0,8,FA,1F,75,0B,86,01,65,49,
32699818,00000523,false,Rx,0,6,02,0D,00,04,7A,4C,00,00,
32700835,00000524,false,Rx,0,6,03,0D,00,00,00,0C,00,00,
32708498,00000112,false,Rx,0,8,FA,1F,75,0B,86,01,65,49,
32708686,000001A1,false,Rx,0,5,7C,CB,00,00,8A,00,00,00,
32708888,00000521,false,Rx,0,6,00,06,00,00,02,71,00,00,
32718507,00000112,false,Rx,0,8,FA,1F,75,0B,86,01,65,49,
32720743,0000039D,false,Rx,0,5,20,57,01,28,00,00,00,00,
32721801,00000522,false,Rx,0,6,01,0D,00,04,7A,49,00,00,
32728507,00000112,false,Rx,0,8,FA,1F,76,0B,86,01,65,49,
32728685,000001A1,false,Rx,0,5,7C,CB,00,00,8A,00,00,00,
32728897,00000521,false,Rx,0,6,00,07,00,00,02,7B,00,00,
32737884,1801D08F,true,Rx,0,8,00,8C,00,5F,03,00,00,47,
32738513,00000112,false,Rx,0,8,FA,1F,76,0B,86,01,65,49,
32740822,0000035D,false,Rx,0,8,02,00,88,08,00,00,20,F0,
32748520,00000112,false,Rx,0,8,FA,1F,76,0B,86,01,65,49,
32748697,000001A1,false,Rx,0,5,7C,CB,00,00,8A,00,00,00,
32748941,000002FA,false,Rx,0,8,FD,FF,05,FF,FF,FF,FF,FF,
32749145,00000328,false,Rx,0,6,B3,00,00,00,87,1E,00,00,
32749399,0000003C,false,Rx,0,8,FF,5F,00,00,00,00,FF,FF,
32749529,000003E8,false,Rx,0,2,F1,FF,00,00,00,00,00,00,
32749784,000003E9,false,Rx,0,8,FE,FF,00,00,00,00,00,00,
32750008,0000012F,false,Rx,0,8,F5,28,86,1D,F1,35,30,80,
32750242,000002F1,false,Rx,0,8,36,10,7D,60,09,08,07,A0,
32750488,0000003F,false,Rx,0,8,00,00,00,80,00,80,64,CE,
32750724,000003F9,false,Rx,0,8,C0,F9,80,E0,43,3C,F3,FF,
32750947,00000431,false,Rx,0,8,CA,FF,0B,02,69,26,F3,4B,
32751181,00000432,false,Rx,0,8,2C,E2,10,A3,4E,FF,02,FF,
32751426,00000510,false,Rx,0,8,40,10,20,00,00,00,00,00,
32751672,0000051A,false,Rx,0,8,00,00,00,00,50,00,00,1A,
32751874,00000521,false,Rx,0,6,00,08,00,00,02,69,00,00,
32752119,00000540,false,Rx,0,8,00,00,00,00,FD,3C,FF,40,
32758546,00000112,false,Rx,0,8,FA,1F,76,0B,86,01,65,49,
32759805,00000523,false,Rx,0,6,02,0E,00,04,7A,35,00,00,
32760759,0000039D,false,Rx,0,5,21,58,01,28,00,00,00,00,
32760961,00000524,false,Rx,0,6,03,0E,FF,FF,FF,F0,00,00,
32768543,00000112,false,Rx,0,8,FA,1F,76,0B,86,01,65,49,
32768721,000001A1,false,Rx,0,5,7C,CB,00,00,8A,00,00,00,
32768924,00000521,false,Rx,0,6,00,09,00,00,02,64,00,00,
32775165,00000100,false,Rx,0,8,01,00,00,00,3D,09,75,12,
32775415,00000101,false,Rx,0,8,00,00,00,00,00,00,00,00,
32778544,00000112,false,Rx,0,8,FA,1F,76,0B,86,01,65,49,
32781810,00000522,false,Rx,0,6,01,0E,00,04,7A,0D,00,00,
32784480,000003B4,false,Rx,0,8,00,FF,30,F0,B8,FF,00,00,
32788553,00000112,false,Rx,0,8,FA,1F,75,0B,86,01,65,49,
32788730,000001A1,false,Rx,0,5,7C,CB,00,00,8A,00,00,00,
32788933,00000521,false,Rx,0,6,00,0A,00,00,02,54,00,00,
32798550,00000112,false,Rx,0,8,FB,1F,75,0B,86,01,65,49,
32800765,0000039D,false,Rx,0,5,22,59,01,28,00,00,00,00,
32804309,00000272,false,Rx,0,8,5E,FD,71,11,FF,FF,FF,FF,
32808551,00000112,false,Rx,0,8,FB,1F,75,0B,86,01,65,49,
32808739,000001A1,false,Rx,0,5,7C,CB,00,00,8A,00,00,00,
32808942,00000521,false,Rx,0,6,00,0B,00,00,02,7C,00,00,
32818559,00000112,false,Rx,0,8,FA,1F,75,0B,86,01,65,49,
32819808,00000523,false,Rx,0,6,02,0F,00,04,7A,68,00,00,
32820824,00000524,false,Rx,0,6,03,0F,00,00,00,02,00,00,
32828562,00000112,false,Rx,0,8,FA,1F,75,0B,86,01,65,49,
32828740,000001A1,false,Rx,0,5,7C,CB,00,00,8A,00,00,00,
32828943,00000521,false,Rx,0,6,00,0C,00,00,02,69,00,00,
32837864,1801D08F,true,Rx,0,8,00,8C,00,5F,03,00,00,47,
32838567,00000112,false,Rx,0,8,FA,1F,75,0B,86,01,65,49,
32840719,0000039D,false,Rx,0,5,23,5A,01,28,00,00,00,00,
32841792,00000522,false,Rx,0,6,01,0F,00,04,79,D8,00,00,
32848569,00000112,false,Rx,0,8,FA,1F,75,0B,86,01,65,49,
32848821,0000003C,false,Rx,0,8,FF,5F,00,00,00,00,FF,FF,
32849065,0000003F,false,Rx,0,8,00,00,00,C0,00,C0,64,C0,
32849288,0000012F,false,Rx,0,8,F5,28,86,1D,F1,35,30,80,
32849471,000001A1,false,Rx,0,5,7C,CB,00,00,8A,00,00,00,
32849706,000002F1,false,Rx,0,8,36,10,7D,60,09,08,07,A0,
32849960,000003E9,false,Rx,0,8,FE,FF,00,00,00,00,00,00,
32850184,00000431,false,Rx,0,8,CA,FF,0B,02,69,26,F3,4B,
32850388,00000521,false,Rx,0,6,00,0D,00,00,02,73,00,00,
32858580,00000112,false,Rx,0,8,FA,1F,75,0B,86,01,65,49,
32868585,00000112,false,Rx,0,8,FA,1F,75,0B,86,01,65,49,
32868763,000001A1,false,Rx,0,5,7C,CB,00,00,8A,00,00,00,
32868965,00000521,false,Rx,0,6,00,0E,00,00,02,84,00,00,
32875152,00000100,false,Rx,0,8,01,00,00,00,3D,09,75,12,
32875402,00000101,false,Rx,0,8,00,00,00,00,00,00,00,00,
32878583,00000112,false,Rx,0,8,FA,1F,75,0B,86,01,65,49,
32879790,00000523,false,Rx,0,6,02,00,00,04,7A,20,00,00,
32880729,0000039D,false,Rx,0,5,24,5B,01,28,00,00,00,00,
32880930,00000524,false,Rx,0,6,03,00,FF,FF,FF,F2,00,00,
32881176,000005BD,false,Rx,0,8,8C,80,00,00,00,00,00,00,
32888590,00000112,false,Rx,0,8,FA,1F,75,0B,86,01,65,49,
32888769,000001A1,false,Rx,0,5,7C,CB,00,00,8A,00,00,00,
32888971,00000521,false,Rx,0,6,00,0F,00,00,02,65,00,00,
32898597,00000112,false,Rx,0,8,FA,1F,75,0B,86,01,65,49,
32901785,00000522,false,Rx,0,6,01,00,00,04,7A,11,00,00,
32908600,00000112,false,Rx,0,8,FA,1F,75,0B,86,01,65,49,
32908779,000001A1,false,Rx,0,5,7C,CB,00,00,8A,00,00,00,
32908981,00000521,false,Rx,0,6,00,00,00,00,02,75,00,00,
32918598,00000112,false,Rx,0,8,FA,1F,75,0B,86,01,65,49,
32920781,0000039D,false,Rx,0,5,25,5C,01,28,00,00,00,00,
32928601,00000112,false,Rx,0,8,FA,1F,75,0B,86,01,65,49,
32928790,000001A1,false,Rx,0,5,7C,CB,00,00,8A,00,00,00,
32928992,00000521,false,Rx,0,6,00,01,00,00,02,65,00,00,
32937883,1801D08F,true,Rx,0,8,00,8C,00,5F,03,00,00,47,
32938606,00000112,false,Rx,0,8,FA,1F,75,0B,86,01,65,49,
32939775,00000523,false,Rx,0,6,02,01,00,04,7A,29,00,00,
32940804,00000524,false,Rx,0,6,03,01,00,00,00,10,00,00,
32948606,00000112,false,Rx,0,8,FA,1F,75,0B,86,01,65,49,
32948858,0000003C,false,Rx,0,8,FF,5F,00,00,00,00,FF,FF,
32949040,000001A1,false,Rx,0,5,7C,CB,00,00,8A,00,00,00,
32949284,000002FA,false,Rx,0,8,FD,FF,05,FF,FF,FF,FF,FF,
32949520,0000012F,false,Rx,0,8,F5,28,86,1D,F1,35,30,80,
32949754,000002F1,false,Rx,0,8,36,10,7D,60,09,08,07,A0,
32949998,0000003F,false,Rx,0,8,00,00,00,00,00,00,64,65,
32950244,000003E9,false,Rx,0,8,FE,FF,00,00,00,00,00,00,
32950479,00000431,false,Rx,0,8,CA,FF,0B,02,69,26,F3,4B,
32950702,00000432,false,Rx,0,8,2C,E2,10,A3,4E,FF,02,FF,
32950948,00000510,false,Rx,0,8,40,10,20,00,00,00,00,00,
32951192,0000051A,false,Rx,0,8,00,00,00,00,50,00,00,1A,
32951405,00000521,false,Rx,0,6,00,02,00,00,02,79,00,00,
32951650,00000540,false,Rx,0,8,00,00,00,00,FD,3C,FF,40,
32952662,00000351,false,Rx,0,8,20,0D,C8,00,DC,05,D3,0A,
32952902,00000355,false,Rx,0,8,27,00,64,00,86,01,00,00,
32953136,00000356,false,Rx,0,8,A6,72,FA,FF,E1,00,00,00,
32955028,0000035A,false,Rx,0,8,00,00,00,00,00,00,00,00,
32955251,0000035E,false,Rx,0,8,53,49,4D,50,20,42,4D,53,
32957007,00000370,false,Rx,0,8,53,49,4D,50,20,45,43,4F,
32958628,00000112,false,Rx,0,8,FA,1F,75,0B,86,01,65,49,
32959028,00000373,false,Rx,0,8,8F,0D,AA,0D,27,01,28,01,
32960732,0000039D,false,Rx,0,5,26,5D,01,28,00,00,00,00,
32961037,00000379,false,Rx,0,8,D2,00,00,00,01,00,00,00,
32961776,00000522,false,Rx,0,6,01,01,00,04,7A,05,00,00,
32963046,00000372,false,Rx,0,8,0E,00,00,00,00,00,00,00,
32968632,00000112,false,Rx,0,8,FA,1F,75,0B,86,01,65,49,
32968820,000001A1,false,Rx,0,5,7C,CB,00,00,8A,00,00,00,
32969022,00000521,false,Rx,0,6,00,03,00,00,02,58,00,00,
32975144,00000100,false,Rx,0,8,01,00,00,00,3D,09,75,12,
32975406,00000101,false,Rx,0,8,00,00,00,00,00,00,00,00,
32978640,00000112,false,Rx,0,8,FA,1F,75,0B,86,01,65,49,
32984621,000003B4,false,Rx,0,8,00,FF,30,F0,B8,FF,00,00,
32988643,00000112,false,Rx,0,8,FA,1F,75,0B,86,01,65,49,
32988821,000001A1,false,Rx,0,5,7C,CB,00,00,8A,00,00,00,
32989022,00000521,false,Rx,0,6,00,04,00,00,02,6D,00,00,
32998641,00000112,false,Rx,0,8,FA,1F,75,0B,86,01,65,49,
32999773,00000523,false,Rx,0,6,02,02,00,04,7A,12,00,00,
33000748,0000039D,false,Rx,0,5,27,5E,01,28,00,00,00,00,
33000962,00000524,false,Rx,0,6,03,02,00,00,00,1A,00,00,
33004646,00000272,false,Rx,0,8,B9,FE,71,11,FF,FF,FF,FF,
33008647,00000112,false,Rx,0,8,FA,1F,75,0B,86,01,65,49,
33008824,000001A1,false,Rx,0,5,7C,CB,00,00,8A,00,00,00,
33009026,00000521,false,Rx,0,6,00,05,00,00,02,68,00,00,
33018647,00000112,false,Rx,0,8,FA,1F,75,0B,86,01,65,49,
33021759,00000522,false,Rx,0,6,01,02,00,04,7A,1C,00,00,
33028650,00000112,false,Rx,0,8,FA,1F,76,0B,86,01,65,49,
33028837,000001A1,false,Rx,0,5,7C,CB,00,00,8A,00,00,00,
33029039,00000521,false,Rx,0,6,00,06,00,00,02,53,00,00,
33037857,1801D08F,true,Rx,0,8,00,8C,00,5F,03,00,00,47,
33038654,00000112,false,Rx,0,8,FB,1F,76,0B,86,01,65,49,
33040700,0000039D,false,Rx,0,5,28,5F,01,28,00,00,00,00,
33048662,00000112,false,Rx,0,8,FB,1F,76,0B,86,01,65,49,
33048913,0000003C,false,Rx,0,8,FF,5F,00,00,00,00,FF,FF,
33049157,0000003F,false,Rx,0,8,00,00,00,40,00,40,64,6B,
33049382,0000012F,false,Rx,0,8,F5,28,86,1D,F1,35,30,80,
33049565,000001A1,false,Rx,0,5,7C,CB,00,00,8A,00,00,00,
33049798,000002F1,false,Rx,0,8,36,10,7D,60,09,08,07,A0,
33050043,000003E9,false,Rx,0,8,FE,FF,00,00,00,00,00,00,
33050267,00000431,false,Rx,0,8,CA,FF,0B,02,69,26,F3,4B,
33050471,00000521,false,Rx,0,6,00,07,00,00,02,5B,00,00,
33058675,00000112,false,Rx,0,8,FA,1F,76,0B,86,01,65,49,
33059765,00000523,false,Rx,0,6,02,03,00,04,79,FE,00,00,
33060773,00000524,false,Rx,0,6,03,03,00,00,00,08,00,00,
33068677,00000112,false,Rx,0,8,FA,1F,76,0B,86,01,65,49,
33068854,000001A1,false,Rx,0,5,7C,CB,00,00,8A,00,00,00,
33069056,00000521,false,Rx,0,6,00,08,00,00,02,67,00,00,
33070916,0000035D,false,Rx,0,8,00,00,00,00,00,00,00,00,
33075147,00000100,false,Rx,0,8,01,00,00,00,40,09,75,12,
33075399,00000101,false,Rx,0,8,00,00,00,00,00,00,00,00,
33078674,00000112,false,Rx,0,8,FA,1F,76,0B,86,01,65,49,
33080709,0000039D,false,Rx,0,5,19,50,01,28,00,00,00,00,
33081758,00000522,false,Rx,0,6,01,03,00,04,7A,18,00,00,
33088683,00000112,false,Rx,0,8,FA,1F,76,0B,86,01,65,49,
33088860,000001A1,false,Rx,0,5,7C,CB,00,00,8A,00,00,00,
33089073,00000521,false,Rx,0,6,00,09,00,00,02,74,00,00,
33098682,00000112,false,Rx,0,8,FA,1F,76,0B,86,01,65,49,
33108686,00000112,false,Rx,0,8,FA,1F,76,0B,86,01,65,49,
33108863,000001A1,false,Rx,0,5,7C,CB,00,00,8A,00,00,00,
33109076,00000521,false,Rx,0,6,00,0A,00,00,02,67,00,00,
33118693,00000112,false,Rx,0,8,FA,1F,76,0B,86,01,65,49,
33119753,00000523,false,Rx,0,6,02,04,00,04,7A,1C,00,00,
33120760,00000524,false,Rx,0,6,03,04,00,00,00,0E,00,00,
33120941,0000039D,false,Rx,0,5,1A,51,01,28,00,00,00,00,
33128689,00000112,false,Rx,0,8,FA,1F,76,0B,86,01,65,49,
33128877,000001A1,false,Rx,0,5,7C,CB,00,00,8A,00,00,00,
33129079,00000521,false,Rx,0,6,00,0B,00,00,02,8D,00,00,
33137874,1801D08F,true,Rx,0,8,00,8C,00,5F,03,00,00,47,
33138692,00000112,false,Rx,0,8,FA,1F,76,0B,86,01,65,49,
33141745,00000522,false,Rx,0,6,01,04,00,04,7A,18,00,00,
33148657,00000521,false,Rx,0,6,00,0C,00,00,02,7E,00,00,
33148907,0000003C,false,Rx,0,8,FF,5F,00,00,00,00,FF,FF,
33149142,00000112,false,Rx,0,8,FA,1F,76,0B,86,01,65,49,
33149323,000001A1,false,Rx,0,5,7C,CB,00,00,8A,00,00,00,
33149568,000002FA,false,Rx,0,8,FD,FF,05,FF,FF,FF,FF,FF,
33149792,0000012F,false,Rx,0,8,F5,28,86,1D,F1,35,30,80,
33150037,000002F1,false,Rx,0,8,36,10,7D,60,09,08,07,A0,
33150282,0000003F,false,Rx,0,8,00,00,00,80,00,80,64,CE,
33150527,000003E9,false,Rx,0,8,FE,FF,00,00,00,00,00,00,
33150752,00000431,false,Rx,0,8,CA,FF,0B,02,69,26,F3,4B,
33150986,00000432,false,Rx,0,8,2C,E2,10,A3,4E,FF,02,FF,
33151230,00000510,false,Rx,0,8,40,10,20,00,00,00,00,00,
33151477,0000051A,false,Rx,0,8,00,00,00,00,50,00,00,1A,
33151721,00000540,false,Rx,0,8,00,00,00,00,FD,3C,FF,40,
33154921,000003C3,false,Rx,0,8,88,20,08,92,20,00,00,00,
33158720,00000112,false,Rx,0,8,FA,1F,76,0B,86,01,65,49,
33160756,0000039D,false,Rx,0,5,1B,52,01,28,00,00,00,00,
33168724,00000112,false,Rx,0,8,FA,1F,76,0B,86,01,65,49,
33168901,000001A1,false,Rx,0,5,7C,CB,00,00,8A,00,00,00,
33169104,00000521,false,Rx,0,6,00,0D,00,00,02,7A,00,00,
33175142,00000100,false,Rx,0,8,01,00,00,00,3D,09,75,12,
33175394,00000101,false,Rx,0,8,00,00,00,00,00,00,00,00,
33178721,00000112,false,Rx,0,8,FA,1F,76,0B,86,01,65,49,
33179738,00000523,false,Rx,0,6,02,05,00,04,7A,3B,00,00,
33180750,00000524,false,Rx,0,6,03,05,FF,FF,FF,EA,00,00,
33184959,000003B4,false,Rx,0,8,00,FF,30,F0,B8,FF,00,00,
33188728,00000112,false,Rx,0,8,FA,1F,76,0B,86,01,65,49,
33188905,000001A1,false,Rx,0,5,7C,CB,00,00,8A,00,00,00,
33189119,00000521,false,Rx,0,6,00,0E,00,00,02,8E,00,00,
33198735,00000112,false,Rx,0,8,FA,1F,76,0B,86,01,65,49,
33200709,0000039D,false,Rx,0,5,1C,53,01,28,00,00,00,00,
33201651,00000522,false,Rx,0,6,01,05,00,04,7A,24,00,00,
33205190,00000272,false,Rx,0,8,B8,F0,71,11,FF,FF,FF,FF,
33208651,00000521,false,Rx,0,6,00,0F,00,00,02,6C,00,00,
33208880,00000112,false,Rx,0,8,FA,1F,76,0B,86,01,65,49,
33209063,000001A1,false,Rx,0,5,7C,CB,00,00,8A,00,00,00,
33218742,00000112,false,Rx,0,8,FA,1F,76,0B,86,01,65,49,
33228737,00000112,false,Rx,0,8,FA,1F,76,0B,86,01,65,49,
33228925,000001A1,false,Rx,0,5,7C,CB,00,00,8A,00,00,00,
33229128,00000521,false,Rx,0,6,00,00,00,00,02,7F,00,00,
33237859,1801D08F,true,Rx,0,8,00,8C,00,5F,03,00,00,47,
33238740,00000112,false,Rx,0,8,FA,1F,76,0B,86,01,65,49,
33239732,00000523,false,Rx,0,6,02,06,00,04,7A,25,00,00,
33240709,0000039D,false,Rx,0,5,1D,54,01,28,00,00,00,00,
33240911,00000524,false,Rx,0,6,03,06,00,00,00,0A,00,00,
33248749,00000112,false,Rx,0,8,FA,1F,76,0B,86,01,65,49,
33249001,0000003C,false,Rx,0,8,FF,5F,00,00,00,00,FF,FF,
33249245,0000003F,false,Rx,0,8,00,00,00,C0,00,C0,64,C0,
33249468,0000012F,false,Rx,0,8,F5,28,86,1D,F1,35,30,80,
33249651,000001A1,false,Rx,0,5,7C,CB,00,00,8A,00,00,00,
33249886,000002F1,false,Rx,0,8,36,10,7D,60,09,08,07,A0,
33250130,000003E9,false,Rx,0,8,FE,FF,00,00,00,00,00,00,
33250354,00000431,false,Rx,0,8,CA,FF,0B,02,69,26,F3,4B,
33250569,00000521,false,Rx,0,6,00,01,00,00,02,6E,00,00,
33258760,00000112,false,Rx,0,8,FA,1F,76,0B,86,01,65,49,
33261724,00000522,false,Rx,0,6,01,06,00,04,79,D8,00,00,
33268722,00000521,false,Rx,0,6,00,02,00,00,02,7E,00,00,
33268952,00000112,false,Rx,0,8,FA,1F,75,0B,86,01,65,49,
33269134,000001A1,false,Rx,0,5,7C,CB,00,00,8A,00,00,00,
33275111,00000100,false,Rx,0,8,01,00,00,00,3D,09,75,12,
33275362,00000101,false,Rx,0,8,00,00,00,00,00,00,00,00,
33278762,00000112,false,Rx,0,8,FA,1F,75,0B,86,01,65,49,
33280747,0000039D,false,Rx,0,5,1E,55,01,28,00,00,00,00,
33288722,00000521,false,Rx,0,6,00,03,00,00,02,6B,00,00,
33288953,00000112,false,Rx,0,8,FA,1F,75,0B,86,01,65,49,
33289135,000001A1,false,Rx,0,5,7C,CB,00,00,8A,00,00,00,
33298772,00000112,false,Rx,0,8,FA,1F,75,0B,86,01,65,49,
33299717,00000523,false,Rx,0,6,02,07,00,04,7A,45,00,00,
33300738,00000524,false,Rx,0,6,03,07,00,00,00,06,00,00,
33308781,00000112,false,Rx,0,8,FA,1F,75,0B,86,01,65,49,
33308960,000001A1,false,Rx,0,5,7C,CB,00,00,8A,00,00,00,
33309162,00000521,false,Rx,0,6,00,04,00,00,02,78,00,00,
33318780,00000112,false,Rx,0,8,FA,1F,75,0B,86,01,65,49,
33320754,0000039D,false,Rx,0,5,1F,56,01,28,00,00,00,00,
33321708,00000522,false,Rx,0,6,01,07,00,04,7A,22,00,00,
33328625,00000521,false,Rx,0,6,00,05,00,00,02,5C,00,00,
33328856,00000112,false,Rx,0,8,FA,1F,76,0B,86,01,65,49,
33329037,000001A1,false,Rx,0,5,7C,CB,00,00,8A,00,00,00,
33337853,1801D08F,true,Rx,0,8,00,8C,00,5F,03,00,00,47,
33338788,00000112,false,Rx,0,8,FA,1F,76,0B,86,01,65,49,
33348627,00000521,false,Rx,0,6,00,06,00,00,02,62,00,00,
33348878,0000003C,false,Rx,0,8,FF,5F,00,00,00,00,FF,FF,
33349112,00000112,false,Rx,0,8,FA,1F,76,0B,86,01,65,49,
33349294,000001A1,false,Rx,0,5,7C,CB,00,00,8A,00,00,00,
33349542,000002FA,false,Rx,0,8,FD,FF,05,FF,FF,FF,FF,FF,
33349765,0000012F,false,Rx,0,8,F5,28,86,1D,F1,35,30,80,
33349999,000002F1,false,Rx,0,8,36,10,7D,60,09,08,07,A0,
33350254,0000003F,false,Rx,0,8,00,00,00,00,00,00,64,65,
33350501,000003E9,false,Rx,0,8,FE,FF,00,00,00,00,00,00,
33350724,00000431,false,Rx,0,8,CA,FF,0B,02,69,26,F3,4B,
33350958,00000432,false,Rx,0,8,2C,E2,10,A3,4E,FF,02,FF,
33351204,00000510,false,Rx,0,8,40,10,20,00,00,00,00,00,
33351448,0000051A,false,Rx,0,8,00,00,00,00,50,00,00,1A,
33351693,00000540,false,Rx,0,8,00,00,00,00,FD,3C,FF,40,
33358812,00000112,false,Rx,0,8,FA,1F,76,0B,86,01,65,49,
33359703,00000523,false,Rx,0,6,02,08,00,04,7A,4E,00,00,
33360724,00000524,false,Rx,0,6,03,08,00,00,00,1E,00,00,
33360903,0000039D,false,Rx,0,5,20,57,01,28,00,00,00,00,
33368754,00000521,false,Rx,0,6,00,07,00,00,02,6A,00,00,
33368984,00000112,false,Rx,0,8,FA,1F,76,0B,86,01,65,49,
33369165,000001A1,false,Rx,0,5,7C,CB,00,00,8A,00,00,00,
33375100,00000100,false,Rx,0,8,01,00,00,00,3D,09,75,12,
33375351,00000101,false,Rx,0,8,00,00,00,00,00,00,00,00,
33378816,00000112,false,Rx,0,8,FA,1F,76,0B,86,01,65,49,
33381705,00000522,false,Rx,0,6,01,08,00,04,7A,36,00,00,
33385503,000003B4,false,Rx,0,8,00,FF,30,F0,B8,FF,00,00,
33388627,00000521,false,Rx,0,6,00,08,00,00,02,5E,00,00,
33388857,00000112,false,Rx,0,8,FA,1F,76,0B,86,01,65,49,
33389039,000001A1,false,Rx,0,5,7C,CB,00,00,8A,00,00,00,
33398826,00000112,false,Rx,0,8,FA,1F,76,0B,86,01,65,49,
33400683,0000039D,false,Rx,0,5,21,58,01,28,00,00,00,00,
33400933,0000035D,false,Rx,0,8,01,00,00,00,00,00,00,00,
33405322,00000272,false,Rx,0,8,E5,F1,71,11,FF,FF,FF,FF,
33408699,00000521,false,Rx,0,6,00,09,00,00,02,59,00,00,
33408928,00000112,false,Rx,0,8,FA,1F,76,0B,86,01,65,49,
33409110,000001A1,false,Rx,0,5,7C,CB,00,00,8A,00,00,00,
33418823,00000112,false,Rx,0,8,FA,1F,76,0B,86,01,65,49,
33419694,00000523,false,Rx,0,6,02,09,00,04,7A,06,00,00,
33420725,00000524,false,Rx,0,6,03,09,00,00,00,1C,00,00,
33428736,00000521,false,Rx,0,6,00,0A,00,00,02,5A,00,00,
33428965,00000112,false,Rx,0,8,FA,1F,76,0B,86,01,65,49,
33429147,000001A1,false,Rx,0,5,7C,CB,00,00,8A,00,00,00,
33437847,1801D08F,true,Rx,0,8,00,8C,00,5F,03,00,00,47,
33438833,00000112,false,Rx,0,8,FA,1F,76,0B,86,01,65,49,
33440679,0000039D,false,Rx,0,5,22,59,01,28,00,00,00,00,
33441691,00000522,false,Rx,0,6,01,09,00,04,7A,2C,00,00,
33448615,00000521,false,Rx,0,6,00,0B,00,00,02,77,00,00,
33448865,0000003C,false,Rx,0,8,FF,5F,00,00,00,00,FF,FF,
33449110,0000003F,false,Rx,0,8,00,00,00,40,00,40,64,6B,
33449333,00000112,false,Rx,0,8,FA,1F,76,0B,86,01,65,49,
33449559,0000012F,false,Rx,0,8,F5,28,86,1D,F1,35,30,80,
33449741,000001A1,false,Rx,0,5,7C,CB,00,00,8A,00,00,00,
33449984,000002F1,false,Rx,0,8,36,10,7D,60,09,08,07,A0,
33450230,000003E9,false,Rx,0,8,FE,FF,00,00,00,00,00,00,
33450454,00000431,false,Rx,0,8,CA,FF,0B,02,69,26,F3,4B,
33458849,00000112,false,Rx,0,8,FA,1F,76,0B,86,01,65,49,
33468688,00000521,false,Rx,0,6,00,0C,00,00,02,84,00,00,
33468917,00000112,false,Rx,0,8,FA,1F,76,0B,86,01,65,49,
33469099,000001A1,false,Rx,0,5,7C,CB,00,00,8A,00,00,00,
33475097,00000100,false,Rx,0,8,01,00,00,00,3D,09,75,12,
33475347,00000101,false,Rx,0,8,00,00,00,00,00,00,00,00,
33478853,00000112,false,Rx,0,8,FA,1F,76,0B,86,01,65,49,
33479682,00000523,false,Rx,0,6,02,0A,00,04,7A,4E,00,00,
33480713,00000524,false,Rx,0,6,03,0A,00,00,00,20,00,00,
33480896,0000039D,false,Rx,0,5,23,5A,01,28,00,00,00,00,
33488727,00000521,false,Rx,0,6,00,0D,00,00,02,62,00,00,
33488957,00000112,false,Rx,0,8,FA,1F,76,0B,86,01,65,49,
33489138,000001A1,false,Rx,0,5,7C,CB,00,00,8A,00,00,00,
33498862,00000112,false,Rx,0,8,FA,1F,76,0B,86,01,65,49,
33501680,00000522,false,Rx,0,6,01,0A,00,04,7A,01,00,00,
33508675,00000521,false,Rx,0,6,00,0E,00,00,02,79,00,00,
33508904,00000112,false,Rx,0,8,FA,1F,75,0B,86,01,65,49,
33509086,000001A1,false,Rx,0,5,7C,CB,00,00,8A,00,00,00,
33518873,00000112,false,Rx,0,8,FA,1F,75,0B,86,01,65,49,
33520772,0000039D,false,Rx,0,5,24,5B,01,28,00,00,00,00,
33528677,00000521,false,Rx,0,6,00,0F,00,00,02,76,00,00,
33528906,00000112,false,Rx,0,8,FA,1F,75,0B,86,01,65,49,
33529088,000001A1,false,Rx,0,5,7C,CB,00,00,8A,00,00,00,
33537862,1801D08F,true,Rx,0,8,00,8C,00,5F,03,00,00,47,
33538869,00000112,false,Rx,0,8,FA,1F,75,0B,86,01,65,49,
33539681,00000523,false,Rx,0,6,02,0B,00,04,7A,25,00,00,
33540700,00000524,false,Rx,0,6,03,0B,00,00,00,31,00,00,
33548713,00000521,false,Rx,0,6,00,00,00,00,02,63,00,00,
33548963,0000003C,false,Rx,0,8,FF,5F,00,00,00,00,FF,FF,
33549197,00000112,false,Rx,0,8,FA,1F,75,0B,86,01,65,49,
33549380,000001A1,false,Rx,0,5,7C,CB,00,00,8A,00,00,00,
33549625,000002FA,false,Rx,0,8,FD,FF,05,FF,FF,FF,FF,FF,
33549848,0000012F,false,Rx,0,8,F5,28,86,1D,F1,35,30,80,
33550083,000002F1,false,Rx,0,8,36,10,7D,60,09,08,07,A0,
33550338,0000003F,false,Rx,0,8,00,00,00,80,00,80,64,CE,
33550584,000003E9,false,Rx,0,8,FE,FF,00,00,00,00,00,00,
33550809,00000431,false,Rx,0,8,CA,FF,0B,02,69,26,F3,4B,
33551043,00000432,false,Rx,0,8,2C,E2,10,A3,4E,FF,02,FF,
33551287,00000510,false,Rx,0,8,40,10,20,00,00,00,00,00,
33551534,0000051A,false,Rx,0,8,00,00,00,00,50,00,00,1A,
33551778,00000540,false,Rx,0,8,00,00,00,00,FD,3C,FF,40,
33558896,00000112,false,Rx,0,8,FA,1F,75,0B,86,01,65,49,
33560690,0000039D,false,Rx,0,5,25,5C,01,28,00,00,00,00,
33561593,00000522,false,Rx,0,6,01,0B,00,04,7A,2E,00,00,
33568678,00000521,false,Rx,0,6,00,01,00,00,02,67,00,00,
33568907,00000112,false,Rx,0,8,FA,1F,76,0B,86,01,65,49,
33569089,000001A1,false,Rx,0,5,7C,CB,00,00,8A,00,00,00,
33575107,00000100,false,Rx,0,8,01,00,00,00,3D,09,75,12,
33575359,00000101,false,Rx,0,8,00,00,00,00,00,00,00,00,
33578906,00000112,false,Rx,0,8,FA,1F,76,0B,86,01,65,49,
33584868,00000351,false,Rx,0,8,20,0D,C8,00,DC,05,D3,0A,
33585098,00000355,false,Rx,0,8,27,00,64,00,86,01,00,00,
33585343,00000356,false,Rx,0,8,A6,72,FA,FF,E1,00,00,00,
33585589,00000337,false,Rx,0,2,FF,FF,00,00,00,00,00,00,
33585863,000003B4,false,Rx,0,8,00,FF,30,F0,B8,FF,00,00,
33587233,0000035A,false,Rx,0,8,00,00,00,00,00,00,00,00,
33587457,0000035E,false,Rx,0,8,53,49,4D,50,20,42,4D,53,
33588669,00000521,false,Rx,0,6,00,02,00,00,02,6D,00,00,
33588902,00000112,false,Rx,0,8,FA,1F,76,0B,86,01,65,49,
33589086,000001A1,false,Rx,0,5,7C,CB,00,00,8A,00,00,00,
33589321,00000370,false,Rx,0,8,53,49,4D,50,20,45,43,4F,
33591231,00000373,false,Rx,0,8,8E,0D,AA,0D,27,01,28,01,
33593246,00000379,false,Rx,0,8,D2,00,00,00,01,00,00,00,
33595250,00000372,false,Rx,0,8,0E,00,00,00,00,00,00,00,
33598913,00000112,false,Rx,0,8,FA,1F,76,0B,86,01,65,49,
33599679,00000523,false,Rx,0,6,02,0C,00,04,7A,0E,00,00,
33600701,00000524,false,Rx,0,6,03,0C,00,00,00,00,00,00,
33600882,0000039D,false,Rx,0,5,26,5D,01,28,00,00,00,00,
33605717,00000272,false,Rx,0,8,02,F2,71,11,FF,FF,FF,FF,
33608713,00000521,false,Rx,0,6,00,03,00,00,02,60,00,00,
33608942,00000112,false,Rx,0,8,FA,1F,76,0B,86,01,65,49,
33609125,000001A1,false,Rx,0,5,7C,CB,00,00,8A,00,00,00,
33618912,00000112,false,Rx,0,8,FA,1F,76,0B,86,01,65,49,
33621582,00000522,false,Rx,0,6,01,0C,00,04,7A,26,00,00,
33628662,00000521,false,Rx,0,6,00,04,00,00,02,69,00,00,
33628922,00000112,false,Rx,0,8,FA,1F,76,0B,86,01,65,49,
33629105,000001A1,false,Rx,0,5,7C,CB,00,00,8A,00,00,00,
33637836,1801D08F,true,Rx,0,8,00,8C,00,5F,03,00,00,47,
33638927,00000112,false,Rx,0,8,FA,1F,76,0B,86,01,65,49,
33640723,0000039D,false,Rx,0,5,27,5E,01,28,00,00,00,00,
33648662,00000521,false,Rx,0,6,00,05,00,00,02,7B,00,00,
33648923,00000112,false,Rx,0,8,FA,1F,76,0B,86,01,65,49,
33649179,0000003C,false,Rx,0,8,FF,5F,00,00,00,00,FF,FF,
33649423,0000003F,false,Rx,0,8,00,00,00,C0,00,C0,64,C0,
33649648,0000012F,false,Rx,0,8,F5,28,86,1D,F1,35,30,80,
33649831,000001A1,false,Rx,0,5,7C,CB,00,00,8A,00,00,00,
33650064,000002F1,false,Rx,0,8,36,10,7D,60,09,08,07,A0,
33650308,000003E9,false,Rx,0,8,FE,FF,00,00,00,00,00,00,
33650533,00000431,false,Rx,0,8,CA,FF,0B,02,69,26,F3,4B,
33658936,00000112,false,Rx,0,8,FA,1F,76,0B,86,01,65,49,
33659650,00000523,false,Rx,0,6,02,0D,00,04,7A,4E,00,00,
33660672,00000524,false,Rx,0,6,03,0D,00,00,00,10,00,00,
33668693,00000521,false,Rx,0,6,00,06,00,00,02,64,00,00,
33668943,00000112,false,Rx,0,8,FA,1F,76,0B,86,01,65,49,
33669126,000001A1,false,Rx,0,5,7C,CB,00,00,8A,00,00,00,
33675112,00000100,false,Rx,0,8,01,00,00,00,3D,09,75,12,
33675364,00000101,false,Rx,0,8,00,00,00,00,00,00,00,00,
33678942,00000112,false,Rx,0,8,FA,1F,76,0B,86,01,65,49,
33680706,0000039D,false,Rx,0,5,28,5F,01,28,00,00,00,00,
33681576,00000522,false,Rx,0,6,01,0D,00,04,7A,2E,00,00,
33688574,00000521,false,Rx,0,6,00,07,00,00,02,75,00,00,
33688950,00000112,false,Rx,0,8,FA,1F,76,0B,86,01,65,49,
33689133,000001A1,false,Rx,0,5,7C,CB,00,00,8A,00,00,00,
33698951,00000112,false,Rx,0,8,FA,1F,76,0B,86,01,65,49,
33708650,00000521,false,Rx,0,6,00,08,00,00,02,7D,00,00,
33708954,00000112,false,Rx,0,8,FA,1F,76,0B,86,01,65,49,
33709135,000001A1,false,Rx,0,5,7C,CB,00,00,8A,00,00,00,
33718955,00000112,false,Rx,0,8,FA,1F,76,0B,86,01,65,49,
33719646,00000523,false,Rx,0,6,02,0E,00,04,7A,35,00,00,
33720669,00000524,false,Rx,0,6,03,0E,FF,FF,FF,FA,00,00,
33720850,0000039D,false,Rx,0,5,19,50,01,28,00,00,00,00,
33728693,00000521,false,Rx,0,6,00,09,00,00,02,6E,00,00,
33728955,00000112,false,Rx,0,8,FA,1F,76,0B,86,01,65,49,
33729137,000001A1,false,Rx,0,5,7C,CB,00,00,8A,00,00,00,
33730806,0000035D,false,Rx,0,8,02,00,88,08,00,00,20,F0,
33737846,1801D08F,true,Rx,0,8,00,8C,00,5F,03,00,00,47,
33738960,00000112,false,Rx,0,8,FA,1F,76,0B,86,01,65,49,
33741562,00000522,false,Rx,0,6,01,0E,00,04,7A,2A,00,00,
33748640,00000521,false,Rx,0,6,00,0A,00,00,02,7A,00,00,
33748965,00000112,false,Rx,0,8,FA,1F,76,0B,86,01,65,49,
33749147,000001A1,false,Rx,0,5,7C,CB,00,00,8A,00,00,00,
33749390,000002FA,false,Rx,0,8,FD,FF,05,FF,FF,FF,FF,FF,
33749604,00000328,false,Rx,0,6,B4,00,00,00,87,1E,00,00,
33749850,000002FC,false,Rx,0,8,01,00,F3,FF,FF,FF,FF,FF,
33750094,000002A0,false,Rx,0,8,F8,88,F8,0F,FF,FF,FF,FF,
33750338,000003A0,false,Rx,0,8,FF,FF,C0,FF,FF,FF,FF,FC,
33750585,0000003C,false,Rx,0,8,FF,5F,00,00,00,00,FF,FF,
33750725,000003E8,false,Rx,0,2,F1,FF,00,00,00,00,00,00,
33750978,000003E9,false,Rx,0,8,FE,FF,00,00,00,00,00,00,
33751203,0000012F,false,Rx,0,8,F5,28,86,1D,F1,35,30,80,
33751437,000002F1,false,Rx,0,8,36,10,7D,60,09,08,07,A0,
33751682,0000003F,false,Rx,0,8,00,00,00,00,00,00,64,65,
33751916,000003F9,false,Rx,0,8,C0,F9,80,E0,43,3C,F3,FF,
33752141,00000431,false,Rx,0,8,CA,FF,0B,02,69,26,F3,4B,
33752375,00000432,false,Rx,0,8,2C,E2,10,A3,4E,FF,02,FF,
33752620,00000510,false,Rx,0,8,40,10,20,00,00,00,00,00,
33752868,0000051A,false,Rx,0,8,00,00,00,00,50,00,00,1A,
33753112,00000540,false,Rx,0,8,00,00,00,00,FD,3C,FF,40,
33758996,00000112,false,Rx,0,8,FA,1F,76,0B,86,01,65,49,
33760676,0000039D,false,Rx,0,5,1A,51,01,28,00,00,00,00,
33768643,00000521,false,Rx,0,6,00,0B,00,00,02,6D,00,00,
33768999,00000112,false,Rx,0,8,FA,1F,76,0B,86,01,65,49,
33769180,000001A1,false,Rx,0,5,7C,CB,00,00,8A,00,00,00,
33775104,00000100,false,Rx,0,8,01,00,00,00,3D,09,75,12,
33775355,00000101,false,Rx,0,8,00,00,00,00,00,00,00,00,
33779008,00000112,false,Rx,0,8,FA,1F,76,0B,86,01,65,49,
33779648,00000523,false,Rx,0,6,02,0F,00,04,7A,39,00,00,
33780658,00000524,false,Rx,0,6,03,0F,00,00,00,0A,00,00,
33786038,000003B4,false,Rx,0,8,00,FF,30,F0,B8,FF,00,00,
33788688,00000521,false,Rx,0,6,00,0C,00,00,02,75,00,00,
33789002,00000112,false,Rx,0,8,FA,1F,76,0B,86,01,65,49,
33789183,000001A1,false,Rx,0,5,7C,CB,00,00,8A,00,00,00,
33799013,00000112,false,Rx,0,8,FA,1F,76,0B,86,01,65,49,
33800671,0000039D,false,Rx,0,5,1B,52,01,28,00,00,00,00,
33801635,00000522,false,Rx,0,6,01,0F,00,04,7A,26,00,00,
33806342,00000272,false,Rx,0,8,5F,F3,71,11,FF,FF,FF,FF,
33808559,00000521,false,Rx,0,6,00,0D,00,00,02,82,00,00,
33809009,00000112,false,Rx,0,8,FA,1F,76,0B,86,01,65,49,
33809191,000001A1,false,Rx,0,5,7C,CB,00,00,8A,00,00,00,
33819020,00000112,false,Rx,0,8,FA,1F,76,0B,86,01,65,49,
33828635,00000521,false,Rx,0,6,00,0E,00,00,02,6E,00,00,
33829022,00000112,false,Rx,0,8,FA,1F,76,0B,86,01,65,49,
33829204,000001A1,false,Rx,0,5,7C,CB,00,00,8A,00,00,00,
33837841,1801D08F,true,Rx,0,8,00,8C,00,5F,03,00,00,47,
33839017,00000112,false,Rx,0,8,FA,1F,76,0B,86,01,65,49,
33839640,00000523,false,Rx,0,6,02,00,00,04,7A,23,00,00,
33840660,00000524,false,Rx,0,6,03,00,00,00,00,12,00,00,
33840841,0000039D,false,Rx,0,5,1C,53,01,28,00,00,00,00,
33848677,00000521,false,Rx,0,6,00,0F,00,00,02,59,00,00,
33849023,00000112,false,Rx,0,8,FA,1F,76,0B,86,01,65,49,
33849278,0000003C,false,Rx,0,8,FF,5F,00,00,00,00,FF,FF,
33849514,0000003F,false,Rx,0,8,00,00,00,40,00,40,64,6B,
33849748,0000012F,false,Rx,0,8,F5,28,86,1D,F1,35,30,80,
33849930,000001A1,false,Rx,0,5,7C,CB,00,00,8A,00,00,00,
33850163,000002F1,false,Rx,0,8,36,10,7D,60,09,08,07,A0,
33850409,000003E9,false,Rx,0,8,FE,FF,00,00,00,00,00,00,
33850633,00000431,false,Rx,0,8,CA,FF,0B,02,69,26,F3,4B,
33859037,00000112,false,Rx,0,8,FA,1F,76,0B,86,01,65,49,
33861632,00000522,false,Rx,0,6,01,00,00,04,79,FB,00,00,
33868629,00000521,false,Rx,0,6,00,00,00,00,02,5E,00,00,
33869037,00000112,false,Rx,0,8,FA,1F,75,0B,86,01,65,49,
33869219,000001A1,false,Rx,0,5,7C,CB,00,00,8A,00,00,00,
33875101,00000100,false,Rx,0,8,01,00,00,00,3D,09,75,12,
33875352,00000101,false,Rx,0,8,00,00,00,00,00,00,00,00,
33879047,00000112,false,Rx,0,8,FA,1F,75,0B,86,01,65,49,
33880725,0000039D,false,Rx,0,5,1D,54,01,28,00,00,00,00,
33888627,00000521,false,Rx,0,6,00,01,00,00,02,6E,00,00,
33889046,00000112,false,Rx,0,8,FA,1F,75,0B,86,01,65,49,
33889227,000001A1,false,Rx,0,5,7C,CB,00,00,8A,00,00,00,
33890855,000005BD,false,Rx,0,8,90,80,00,00,00,00,00,00,
33899045,00000112,false,Rx,0,8,FA,1F,75,0B,86,01,65,49,
33899613,00000523,false,Rx,0,6,02,01,00,04,7A,5A,00,00,
33900644,00000524,false,Rx,0,6,03,01,00,00,00,10,00,00,
33908678,00000521,false,Rx,0,6,00,02,00,00,02,84,00,00,
33909054,00000112,false,Rx,0,8,FA,1F,75,0B,86,01,65,49,
33909235,000001A1,false,Rx,0,5,7C,CB,00,00,8A,00,00,00,
33919055,00000112,false,Rx,0,8,FA,1F,75,0B,86,01,65,49,
33920713,0000039D,false,Rx,0,5,1E,55,01,28,00,00,00,00,
33921624,00000522,false,Rx,0,6,01,01,00,04,79,FF,00,00,
33928538,00000521,false,Rx,0,6,00,03,00,00,02,84,00,00,
33929061,00000112,false,Rx,0,8,FA,1F,75,0B,86,01,65,49,
33929243,000001A1,false,Rx,0,5,7C,CB,00,00,8A,00,00,00,
33937850,1801D08F,true,Rx,0,8,00,8C,00,5F,03,00,00,47,
33939066,00000112,false,Rx,0,8,FA,1F,75,0B,86,01,65,49,
33948615,00000521,false,Rx,0,6,00,04,00,00,02,71,00,00,
33949064,00000112,false,Rx,0,8,FA,1F,75,0B,86,01,65,49,
33949319,0000003C,false,Rx,0,8,FF,5F,00,00,00,00,FF,FF,
33949492,000001A1,false,Rx,0,5,7C,CB,00,00,8A,00,00,00,
33949747,000002FA,false,Rx,0,8,FD,FF,05,FF,FF,FF,FF,FF,
33949970,0000012F,false,Rx,0,8,F5,28,86,1D,F1,35,30,80,
33950205,000002F1,false,Rx,0,8,36,10,7D,60,09,08,07,A0,
33950450,0000003F,false,Rx,0,8,00,00,00,80,00,80,64,CE,
33950704,000003E9,false,Rx,0,8,FE,FF,00,00,00,00,00,00,
33950928,00000431,false,Rx,0,8,CA,FF,0B,02,69,26,F3,4B,
33951162,00000432,false,Rx,0,8,2C,E2,10,A3,4E,FF,02,FF,
33951406,00000510,false,Rx,0,8,40,10,20,00,00,00,00,00,
33951653,0000051A,false,Rx,0,8,00,00,00,00,50,00,00,1A,
33951898,00000540,false,Rx,0,8,00,00,00,00,FD,3C,FF,40,
33959091,00000112,false,Rx,0,8,FA,1F,75,0B,86,01,65,49,
33959616,00000523,false,Rx,0,6,02,02,00,04,7A,2D,00,00,
33960637,00000524,false,Rx,0,6,03,02,FF,FF,FF,F0,00,00,
33960818,0000039D,false,Rx,0,5,1F,56,01,28,00,00,00,00,
33968662,00000521,false,Rx,0,6,00,05,00,00,02,84,00,00,
33969090,00000112,false,Rx,0,8,FA,1F,75,0B,86,01,65,49,
33969272,000001A1,false,Rx,0,5,7C,CB,00,00,8A,00,00,00,
33975102,00000100,false,Rx,0,8,01,00,00,00,3D,09,75,12,
33975353,00000101,false,Rx,0,8,00,00,00,00,00,00,00,00,
33979090,00000112,false,Rx,0,8,FA,1F,75,0B,86,01,65,49,
33981603,00000522,false,Rx,0,6,01,02,00,04,7A,5D,00,00,
33986656,000003B4,false,Rx,0,8,00,FF,30,F0,B8,FF,00,00,
33988525,00000521,false,Rx,0,6,00,06,00,00,02,8B,00,00,
33989100,00000112,false,Rx,0,8,FA,1F,76,0B,86,01,65,49,
33989283,000001A1,false,Rx,0,5,7C,CB,00,00,8A,00,00,00,
33999102,00000112,false,Rx,0,8,FA,1F,76,0B,86,01,65,49,
34000707,0000039D,false,Rx,0,5,20,57,01,28,00,00,00,00,
34006363,00000272,false,Rx,0,8,D1,F4,71,11,FF,FF,FF,FF,
34008600,00000521,false,Rx,0,6,00,07,00,00,02,7E,00,00,
34009101,00000112,false,Rx,0,8,FA,1F,76,0B,86,01,65,49,
34009284,000001A1,false,Rx,0,5,7C,CB,00,00,8A,00,00,00,
34019105,00000112,false,Rx,0,8,FA,1F,76,0B,86,01,65,49,
34019598,00000523,false,Rx,0,6,02,03,00,04,7A,23,00,00,
34020619,00000524,false,Rx,0,6,03,03,FF,FF,FF,FE,00,00,
34028649,00000521,false,Rx,0,6,00,08,00,00,02,73,00,00,
34029108,00000112,false,Rx,0,8,FA,1F,76,0B,86,01,65,49,
34029291,000001A1,false,Rx,0,5,7C,CB,00,00,8A,00,00,00,
34037855,1801D08F,true,Rx,0,8,00,8C,00,5F,03,00,00,47,
34039113,00000112,false,Rx,0,8,FA,1F,76,0B,86,01,65,49,
34040698,0000039D,false,Rx,0,5,21,58,01,28,00,00,00,00,
34041594,00000522,false,Rx,0,6,01,03,00,04,79,FF,00,00,
34048601,00000521,false,Rx,0,6,00,09,00,00,02,82,00,00,
34049113,00000112,false,Rx,0,8,FA,1F,75,0B,86,01,65,49,
34049369,0000003C,false,Rx,0,8,FF,5F,00,00,00,00,FF,FF,
34049604,0000003F,false,Rx,0,8,00,00,00,C0,00,C0,64,C0,
34049838,0000012F,false,Rx,0,8,F5,28,86,1D,F1,35,30,80,
34050021,000001A1,false,Rx,0,5,7C,CB,00,00,8A,00,00,00,
34050254,000002F1,false,Rx,0,8,36,10,7D,60,09,08,07,A0,
34050500,000003E9,false,Rx,0,8,FE,FF,00,00,00,00,00,00,
34050733,00000431,false,Rx,0,8,CA,FF,0B,02,69,26,F3,4B,
34059123,00000112,false,Rx,0,8,FA,1F,75,0B,86,01,65,49,
34060792,0000035D,false,Rx,0,8,00,00,00,00,00,00,00,00,
34068600,00000521,false,Rx,0,6,00,0A,00,00,02,71,00,00,
34069132,00000112,false,Rx,0,8,FA,1F,75,0B,86,01,65,49,
34069315,000001A1,false,Rx,0,5,7C,CB,00,00,8A,00,00,00,
34075092,00000100,false,Rx,0,8,01,00,00,00,3D,09,75,12,
34075344,00000101,false,Rx,0,8,00,00,00,00,00,00,00,00,
34079133,00000112,false,Rx,0,8,FA,1F,75,0B,86,01,65,49,
34079594,00000523,false,Rx,0,6,02,04,00,04,7A,12,00,00,
34080615,00000524,false,Rx,0,6,03,04,FF,FF,FF,E4,00,00,
34080798,0000039D,false,Rx,0,5,22,59,01,28,00,00,00,00,
34088630,00000521,false,Rx,0,6,00,0B,00,00,02,6A,00,00,
34089133,00000112,false,Rx,0,8,FA,1F,75,0B,86,01,65,49,
34089314,000001A1,false,Rx,0,5,7C,CB,00,00,8A,00,00,00,
34099134,00000112,false,Rx,0,8,FA,1F,75,0B,86,01,65,49,
34101519,00000522,false,Rx,0,6,01,04,00,04,79,F7,00,00,
34108588,00000521,false,Rx,0,6,00,0C,00,00,02,73,00,00,
34109143,00000112,false,Rx,0,8,FA,1F,75,0B,86,01,65,49,
34109325,000001A1,false,Rx,0,5,7C,CB,00,00,8A,00,00,00,
34116548,000003C3,false,Rx,0,8,89,04,C1,F1,0C,43,12,0C,
34119144,00000112,false,Rx,0,8,FA,1F,75,0B,86,01,65,49,
34120688,0000039D,false,Rx,0,5,23,5A,01,28,00,00,00,00,
34128589,00000521,false,Rx,0,6,00,0D,00,00,02,67,00,00,
34129144,00000112,false,Rx,0,8,FA,1F,75,0B,86,01,65,49,
34129326,000001A1,false,Rx,0,5,7C,CB,00,00,8A,00,00,00,
34137828,1801D08F,true,Rx,0,8,00,8C,00,5F,03,00,00,47,
34139150,00000112,false,Rx,0,8,FA,1F,75,0B,86,01,65,49,
34139584,00000523,false,Rx,0,6,02,05,00,04,7A,45,00,00,
34140604,00000524,false,Rx,0,6,03,05,00,00,00,1A,00,00,
34148617,00000521,false,Rx,0,6,00,0E,00,00,02,68,00,00,
34149151,00000112,false,Rx,0,8,FA,1F,75,0B,86,01,65,49,
34149406,0000003C,false,Rx,0,8,FF,5F,00,00,00,00,FF,FF,
34149589,000001A1,false,Rx,0,5,7C,CB,00,00,8A,00,00,00,
34149834,000002FA,false,Rx,0,8,FD,FF,05,FF,FF,FF,FF,FF,
34150057,0000012F,false,Rx,0,8,F5,28,86,1D,F1,35,30,80,
34150291,000002F1,false,Rx,0,8,36,10,7D,60,09,08,07,A0,
34150548,0000003F,false,Rx,0,8,00,00,00,00,00,00,64,65,
34150791,000003E9,false,Rx,0,8,FE,FF,00,00,00,00,00,00,
34151014,00000431,false,Rx,0,8,CA,FF,0B,02,69,26,F3,4B,
34151248,00000432,false,Rx,0,8,2C,E2,10,A3,4E,FF,02,FF,
34151495,00000510,false,Rx,0,8,40,10,20,00,00,00,00,00,
34151739,0000051A,false,Rx,0,8,00,00,00,00,50,00,00,1A,
34151983,00000540,false,Rx,0,8,00,00,00,00,FD,3C,FF,40,
34159179,00000112,false,Rx,0,8,FA,1F,75,0B,86,01,65,49,
34160649,0000039D,false,Rx,0,5,24,5B,01,28,00,00,00,00,
34161498,00000522,false,Rx,0,6,01,05,00,04,7A,28,00,00,
34168495,00000521,false,Rx,0,6,00,0F,00,00,02,7D,00,00,
34169175,00000112,false,Rx,0,8,FA,1F,76,0B,86,01,65,49,
34169357,000001A1,false,Rx,0,5,7C,CB,00,00,8A,00,00,00,
34175093,00000100,false,Rx,0,8,01,00,00,00,3D,09,75,12,
34175345,00000101,false,Rx,0,8,00,00,00,00,00,00,00,00,
34179177,00000112,false,Rx,0,8,FA,1F,76,0B,86,01,65,49,
34186670,000003B4,false,Rx,0,8,00,FF,30,F0,B8,FF,00,00,
34188579,00000521,false,Rx,0,6,00,00,00,00,02,6A,00,00,
34189187,00000112,false,Rx,0,8,FA,1F,76,0B,86,01,65,49,
34189368,000001A1,false,Rx,0,5,7C,CB,00,00,8A,00,00,00,
34199189,00000112,false,Rx,0,8,FA,1F,76,0B,86,01,65,49,
34199577,00000523,false,Rx,0,6,02,06,00,04,7A,31,00,00,
34200599,00000524,false,Rx,0,6,03,06,00,00,00,0C,00,00,
34200833,0000032D,false,Rx,0,8,0D,00,00,00,86,1B,81,3C,
34201014,0000039D,false,Rx,0,5,25,5C,01,28,00,00,00,00,
34206686,00000272,false,Rx,0,8,8C,F5,71,11,FF,FF,FF,FF,
34208606,00000521,false,Rx,0,6,00,01,00,00,02,65,00,00,
34209192,00000112,false,Rx,0,8,FA,1F,76,0B,86,01,65,49,
34209374,000001A1,false,Rx,0,5,7C,CB,00,00,8A,00,00,00,
34217167,00000351,false,Rx,0,8,20,0D,C8,00,DC,05,D3,0A,
34217409,00000355,false,Rx,0,8,27,00,64,00,86,01,00,00,
34217644,00000356,false,Rx,0,8,A6,72,FA,FF,E1,00,00,00,
34219190,00000112,false,Rx,0,8,FA,1F,76,0B,86,01,65,49,
34219530,0000035A,false,Rx,0,8,00,00,00,00,00,00,00,00,
34219755,0000035E,false,Rx,0,8,53,49,4D,50,20,42,4D,53,
34221519,00000370,false,Rx,0,8,53,49,4D,50,20,45,43,4F,
34221711,00000522,false,Rx,0,6,01,06,00,04,7A,4F,00,00,
34223530,00000373,false,Rx,0,8,8E,0D,AB,0D,27,01,28,01,
34225555,00000379,false,Rx,0,8,D2,00,00,00,01,00,00,00,
34227559,00000372,false,Rx,0,8,0E,00,00,00,00,00,00,00,
34228561,00000521,false,Rx,0,6,00,02,00,00,02,61,00,00,
34229194,00000112,false,Rx,0,8,FA,1F,76,0B,86,01,65,49,
34229375,000001A1,false,Rx,0,5,7C,CB,00,00,8A,00,00,00,
34237838,1801D08F,true,Rx,0,8,00,8C,00,5F,03,00,00,47,
34239202,00000112,false,Rx,0,8,FA,1F,76,0B,86,01,65,49,
34240714,0000039D,false,Rx,0,5,26,5D,01,28,00,00,00,00,
34248568,00000521,false,Rx,0,6,00,03,00,00,02,66,00,00,
34249207,00000112,false,Rx,0,8,FA,1F,76,0B,86,01,65,49,
34249451,0000003C,false,Rx,0,8,FF,5F,00,00,00,00,FF,FF,
34249698,0000003F,false,Rx,0,8,00,00,00,40,00,40,64,6B,
34249921,0000012F,false,Rx,0,8,F5,28,86,1D,F1,35,30,80,
34250103,000001A1,false,Rx,0,5,7C,CB,00,00,8A,00,00,00,
34250336,000002F1,false,Rx,0,8,36,10,7D,60,09,08,07,A0,
34250593,000003E9,false,Rx,0,8,FE,FF,00,00,00,00,00,00,
34250815,00000431,false,Rx,0,8,CA,FF,0B,02,69,26,F3,4B,
34259216,00000112,false,Rx,0,8,FA,1F,76,0B,86,01,65,49,
34259562,00000523,false,Rx,0,6,02,07,00,04,7A,08,00,00,
34260574,00000524,false,Rx,0,6,03,07,00,00,00,1A,00,00,
34268592,00000521,false,Rx,0,6,00,04,00,00,02,46,00,00,
34269220,00000112,false,Rx,0,8,FB,1F,76,0B,86,01,65,49,
34269402,000001A1,false,Rx,0,5,7C,CB,00,00,8A,00,00,00,
34275086,00000100,false,Rx,0,8,01,00,00,00,3D,09,75,12,
34275337,00000101,false,Rx,0,8,00,00,00,00,00,00,00,00,
34279220,00000112,false,Rx,0,8,FB,1F,76,0B,86,01,65,49,
34280669,0000039D,false,Rx,0,5,27,5E,01,28,00,00,00,00,
34281559,00000522,false,Rx,0,6,01,07,00,04,7A,07,00,00,
34288472,00000521,false,Rx,0,6,00,05,00,00,02,61,00,00,
34289226,00000112,false,Rx,0,8,FA,1F,75,0B,86,01,65,49,
34289407,000001A1,false,Rx,0,5,7C,CB,00,00,8A,00,00,00,
34299228,00000112,false,Rx,0,8,FA,1F,75,0B,86,01,65,49,
34308476,00000521,false,Rx,0,6,00,06,00,00,02,79,00,00,
34309230,00000112,false,Rx,0,8,FA,1F,75,0B,86,01,65,49,
34309412,000001A1,false,Rx,0,5,7C,CB,00,00,8A,00,00,00,
34319236,00000112,false,Rx,0,8,FA,1F,75,0B,86,01,65,49,
34319562,00000523,false,Rx,0,6,02,08,00,04,7A,54,00,00,
34320583,00000524,false,Rx,0,6,03,08,00,00,00,18,00,00,
34320764,0000039D,false,Rx,0,5,28,5F,01,28,00,00,00,00,
34328595,00000521,false,Rx,0,6,00,07,00,00,02,71,00,00,
34329234,00000112,false,Rx,0,8,FA,1F,75,0B,86,01,65,49,
34329416,000001A1,false,Rx,0,5,7C,CB,00,00,8A,00,00,00,
34337843,1801D08F,true,Rx,0,8,00,8C,00,5F,03,00,00,47,
34339238,00000112,false,Rx,0,8,FA,1F,75,0B,86,01,65,49,
34341547,00000522,false,Rx,0,6,01,08,00,04,7A,32,00,00,
34348466,00000521,false,Rx,0,6,00,08,00,00,02,75,00,00,
34349242,00000112,false,Rx,0,8,FA,1F,76,0B,86,01,65,49,
34349499,0000003C,false,Rx,0,8,FF,5F,00,00,00,00,FF,FF,
34349670,000001A1,false,Rx,0,5,7C,CB,00,00,8A,00,00,00,
34349924,000002FA,false,Rx,0,8,FD,FF,05,FF,FF,FF,FF,FF,
34350148,0000012F,false,Rx,0,8,F5,28,86,1D,F1,35,30,80,
34350383,000002F1,false,Rx,0,8,36,10,7D,60,09,08,07,A0,
34350635,0000003F,false,Rx,0,8,00,00,00,80,00,80,64,CE,
34350879,000003E9,false,Rx,0,8,FE,FF,00,00,00,00,00,00,
34351104,00000431,false,Rx,0,8,CA,FF,0B,02,69,26,F3,4B,
34351338,00000432,false,Rx,0,8,2C,E2,10,A3,4E,FF,02,FF,
34351583,00000510,false,Rx,0,8,40,10,20,00,00,00,00,00,
34351829,0000051A,false,Rx,0,8,00,00,00,00,50,00,00,1A,
34352073,00000540,false,Rx,0,8,00,00,00,00,FD,3C,FF,40,
34359270,00000112,false,Rx,0,8,FA,1F,76,0B,86,01,65,49,
34360698,0000039D,false,Rx,0,5,19,50,01,28,00,00,00,00,
34368549,00000521,false,Rx,0,6,00,09,00,00,02,69,00,00,
34369271,00000112,false,Rx,0,8,FA,1F,76,0B,86,01,65,49,
34369444,000001A1,false,Rx,0,5,7C,CB,00,00,8A,00,00,00,
34375054,00000100,false,Rx,0,8,01,00,00,00,3D,09,75,12,
34375304,00000101,false,Rx,0,8,00,00,00,00,00,00,00,00,
34379272,00000112,false,Rx,0,8,FA,1F,76,0B,86,01,65,49,
34379536,00000523,false,Rx,0,6,02,09,00,04,7A,56,00,00,
34380567,00000524,false,Rx,0,6,03,09,00,00,00,35,00,00,
34387002,000003B4,false,Rx,0,8,00,FF,30,F0,B8,FF,00,00,
34388586,00000521,false,Rx,0,6,00,0A,00,00,02,6A,00,00,
34389277,00000112,false,Rx,0,8,FA,1F,76,0B,86,01,65,49,
34389460,000001A1,false,Rx,0,5,7C,CB,00,00,8A,00,00,00,
34390765,0000035D,false,Rx,0,8,01,00,00,00,00,00,00,00,
34399283,00000112,false,Rx,0,8,FA,1F,76,0B,86,01,65,49,
34400679,0000039D,false,Rx,0,5,1A,51,01,28,00,00,00,00,
34401538,00000522,false,Rx,0,6,01,09,00,04,7A,03,00,00,
34407248,00000272,false,Rx,0,8,6B,F6,71,11,FF,FF,FF,FF,
34408453,00000521,false,Rx,0,6,00,0B,00,00,02,75,00,00,
34409275,00000112,false,Rx,0,8,FA,1F,75,0B,86,01,65,49,
34409466,000001A1,false,Rx,0,5,7C,CB,00,00,8A,00,00,00,
34419281,00000112,false,Rx,0,8,FA,1F,75,0B,86,01,65,49,
34428530,00000521,false,Rx,0,6,00,0C,00,00,02,6F,00,00,
34429283,00000112,false,Rx,0,8,FA,1F,75,0B,86,01,65,49,
34429466,000001A1,false,Rx,0,5,7C,CB,00,00,8A,00,00,00,
34437841,1801D08F,true,Rx,0,8,00,8C,00,5F,03,00,00,47,
34439288,00000112,false,Rx,0,8,FA,1F,75,0B,86,01,65,49,
34439535,00000523,false,Rx,0,6,02,0A,00,04,7A,25,00,00,
34440553,00000524,false,Rx,0,6,03,0A,FF,FF,FF,EA,00,00,
34440735,0000039D,false,Rx,0,5,1B,52,01,28,00,00,00,00,
34448573,00000521,false,Rx,0,6,00,0D,00,00,02,74,00,00,
34449295,00000112,false,Rx,0,8,FA,1F,75,0B,86,01,65,49,
34449541,0000003C,false,Rx,0,8,FF,5F,00,00,00,00,FF,FF,
34449785,0000003F,false,Rx,0,8,00,00,00,C0,00,C0,64,C0,
34450008,0000012F,false,Rx,0,8,F5,28,86,1D,F1,35,30,80,
34450191,000001A1,false,Rx,0,5,7C,CB,00,00,8A,00,00,00,
34450424,000002F1,false,Rx,0,8,36,10,7D,60,09,08,07,A0,
34450677,000003E9,false,Rx,0,8,FE,FF,00,00,00,00,00,00,
34450902,00000431,false,Rx,0,8,CA,FF,0B,02,69,26,F3,4B,
34459305,00000112,false,Rx,0,8,FA,1F,75,0B,86,01,65,49,
34461445,00000522,false,Rx,0,6,01,0A,00,04,7A,0B,00,00,
34468441,00000521,false,Rx,0,6,00,0E,00,00,02,6D,00,00,
34469312,00000112,false,Rx,0,8,FA,1F,75,0B,86,01,65,49,
34469495,000001A1,false,Rx,0,5,7C,CB,00,00,8A,00,00,00,
34475041,00000100,false,Rx,0,8,01,00,00,00,3D,09,75,12,
34475302,00000101,false,Rx,0,8,00,00,00,00,00,00,00,00,
34479313,00000112,false,Rx,0,8,FA,1F,75,0B,86,01,65,49,
34480647,0000039D,false,Rx,0,5,1C,53,01,28,00,00,00,00,
34488515,00000521,false,Rx,0,6,00,0F,00,00,02,6A,00,00,
34489311,00000112,false,Rx,0,8,FA,1F,75,0B,86,01,65,49,
34489493,000001A1,false,Rx,0,5,7C,CB,00,00,8A,00,00,00,
34499313,00000112,false,Rx,0,8,FA,1F,75,0B,86,01,65,49,
34499523,00000523,false,Rx,0,6,02,0B,00,04,7A,18,00,00,
34500544,00000524,false,Rx,0,6,03,0B,00,00,00,04,00,00,
34508562,00000521,false,Rx,0,6,00,00,00,00,02,65,00,00,
34509316,00000112,false,Rx,0,8,FA,1F,75,0B,86,01,65,49,
34509499,000001A1,false,Rx,0,5,7C,CB,00,00,8A,00,00,00,
34519320,00000112,false,Rx,0,8,FA,1F,75,0B,86,01,65,49,
34520674,0000039D,false,Rx,0,5,1D,54,01,28,00,00,00,00,
34521513,00000522,false,Rx,0,6,01,0B,00,04,7A,1C,00,00,
34528510,00000521,false,Rx,0,6,00,01,00,00,02,70,00,00,
34529326,00000112,false,Rx,0,8,FA,1F,76,0B,86,01,65,49,
34529509,000001A1,false,Rx,0,5,7C,CB,00,00,8A,00,00,00,
34537830,1801D08F,true,Rx,0,8,00,8C,00,5F,03,00,00,47,
34539331,00000112,false,Rx,0,8,FA,1F,76,0B,86,01,65,49,
34548512,00000521,false,Rx,0,6,00,02,00,00,02,6C,00,00,
34549329,00000112,false,Rx,0,8,FA,1F,76,0B,86,01,65,49,
34549585,0000003C,false,Rx,0,8,FF,5F,00,00,00,00,FF,FF,
34549766,000001A1,false,Rx,0,5,7C,CB,00,00,8A,00,00,00,
34550011,000002FA,false,Rx,0,8,FD,FF,05,FF,FF,FF,FF,FF,
34550235,0000012F,false,Rx,0,8,F5,28,86,1D,F1,35,30,80,
34550480,000002F1,false,Rx,0,8,36,10,7D,60,09,08,07,A0,
34550722,0000003F,false,Rx,0,8,00,00,00,00,00,00,64,65,
34550966,000003E9,false,Rx,0,8,FE,FF,00,00,00,00,00,00,
34551200,00000431,false,Rx,0,8,CA,FF,0B,02,69,26,F3,4B,
34551423,00000432,false,Rx,0,8,2C,E2,10,A3,4E,FF,02,FF,
34551681,00000510,false,Rx,0,8,40,10,20,00,00,00,00,00,
34551925,0000051A,false,Rx,0,8,00,00,00,00,50,00,00,1A,
34552169,00000540,false,Rx,0,8,00,00,00,00,FD,3C,FF,40,
34559358,00000112,false,Rx,0,8,FA,1F,76,0B,86,01,65,49,
34559557,00000523,false,Rx,0,6,02,0C,00,04,7A,20,00,00,
34560526,00000524,false,Rx,0,6,03,0C,FF,FF,FF,E2,00,00,
34560708,0000039D,false,Rx,0,5,1E,55,01,28,00,00,00,00,
34568548,00000521,false,Rx,0,6,00,03,00,00,02,5B,00,00,
34569355,00000112,false,Rx,0,8,FA,1F,76,0B,86,01,65,49,
34569537,000001A1,false,Rx,0,5,7C,CB,00,00,8A,00,00,00,
34575041,00000100,false,Rx,0,8,01,00,00,00,3D,09,75,12,
34575293,00000101,false,Rx,0,8,00,00,00,00,00,00,00,00,
34579355,00000112,false,Rx,0,8,FA,1F,76,0B,86,01,65,49,
34581413,00000522,false,Rx,0,6,01,0C,00,04,7A,43,00,00,
34587447,00000337,false,Rx,0,2,FF,FF,00,00,00,00,00,00,
34587751,000003B4,false,Rx,0,8,00,FF,30,F0,B8,FF,00,00,
34588415,00000521,false,Rx,0,6,00,04,00,00,02,5D,00,00,
34589363,00000112,false,Rx,0,8,FA,1F,76,0B,86,01,65,49,
34589545,000001A1,false,Rx,0,5,7C,CB,00,00,8A,00,00,00,
34599368,00000112,false,Rx,0,8,FA,1F,76,0B,86,01,65,49,
34600702,0000039D,false,Rx,0,5,1F,56,01,28,00,00,00,00,
34607375,00000272,false,Rx,0,8,36,F7,71,11,FF,FF,FF,FF,
34608500,00000521,false,Rx,0,6,00,05,00,00,02,62,00,00,
34609373,00000112,false,Rx,0,8,FA,1F,76,0B,86,01,65,49,
34609553,000001A1,false,Rx,0,5,7C,CB,00,00,8A,00,00,00,
34619368,00000112,false,Rx,0,8,FA,1F,76,0B,86,01,65,49,
34619568,00000523,false,Rx,0,6,02,0D,00,04,7A,39,00,00,
34620515,00000524,false,Rx,0,6,03,0D,00,00,00,08,00,00,
34628525,00000521,false,Rx,0,6,00,06,00,00,02,66,00,00,
34629373,00000112,false,Rx,0,8,FA,1F,76,0B,86,01,65,49,
34629556,000001A1,false,Rx,0,5,7C,CB,00,00,8A,00,00,00,
34637815,1801D08F,true,Rx,0,8,00,8C,00,5F,03,00,00,47,
34639379,00000112,false,Rx,0,8,FA,1F,76,0B,86,01,65,49,
34640649,0000039D,false,Rx,0,5,20,57,01,28,00,00,00,00,
34641492,00000522,false,Rx,0,6,01,0D,00,04,79,FD,00,00,
34648490,00000521,false,Rx,0,6,00,07,00,00,02,57,00,00,
34649380,00000112,false,Rx,0,8,FB,1F,75,0B,86,01,65,49,
34649625,0000003C,false,Rx,0,8,FF,5F,00,00,00,00,FF,FF,
34649871,0000003F,false,Rx,0,8,00,00,00,40,00,40,64,6B,
34650105,0000012F,false,Rx,0,8,F5,28,86,1D,F1,35,30,80,
34650287,000001A1,false,Rx,0,5,7C,CB,00,00,8A,00,00,00,
34650522,000002F1,false,Rx,0,8,36,10,7D,60,09,08,07,A0,
34650762,000003E9,false,Rx,0,8,FE,FF,00,00,00,00,00,00,
34650996,00000431,false,Rx,0,8,CA,FF,0B,02,69,26,F3,4B,
34659391,00000112,false,Rx,0,8,FB,1F,75,0B,86,01,65,49,
34668480,00000521,false,Rx,0,6,00,08,00,00,02,7F,00,00,
34669401,00000112,false,Rx,0,8,FA,1F,75,0B,86,01,65,49,
34669583,000001A1,false,Rx,0,5,7C,CB,00,00,8A,00,00,00,
34675056,00000100,false,Rx,0,8,01,00,00,00,3D,09,75,12,
34675308,00000101,false,Rx,0,8,00,00,00,00,00,00,00,00,
34679402,00000112,false,Rx,0,8,FA,1F,75,0B,86,01,65,49,
34679603,00000523,false,Rx,0,6,02,0E,00,04,7A,23,00,00,
34680499,00000524,false,Rx,0,6,03,0E,FF,FF,FF,E6,00,00,
34680680,0000039D,false,Rx,0,5,21,58,01,28,00,00,00,00,
34688531,00000521,false,Rx,0,6,00,09,00,00,02,82,00,00,
34689400,00000112,false,Rx,0,8,FA,1F,75,0B,86,01,65,49,
34689582,000001A1,false,Rx,0,5,7C,CB,00,00,8A,00,00,00,
34699403,00000112,false,Rx,0,8,FA,1F,75,0B,86,01,65,49,
34701472,00000522,false,Rx,0,6,01,0E,00,04,7A,32,00,00,
34708478,00000521,false,Rx,0,6,00,0A,00,00,02,6A,00,00,
34709410,00000112,false,Rx,0,8,FA,1F,76,0B,86,01,65,49,
34709592,000001A1,false,Rx,0,5,7C,CB,00,00,8A,00,00,00,
34719413,00000112,false,Rx,0,8,FA,1F,76,0B,86,01,65,49,
34720705,0000039D,false,Rx,0,5,22,59,01,28,00,00,00,00,
34720949,0000035D,false,Rx,0,8,02,00,88,08,00,00,20,F0,
34728473,00000521,false,Rx,0,6,00,0B,00,00,02,91,00,00,
34729416,00000112,false,Rx,0,8,FA,1F,76,0B,86,01,65,49,
34729598,000001A1,false,Rx,0,5,7C,CB,00,00,8A,00,00,00,
34737828,1801D08F,true,Rx,0,8,00,8C,00,5F,03,00,00,47,
34739422,00000112,false,Rx,0,8,FA,1F,76,0B,86,01,65,49,
34739627,00000523,false,Rx,0,6,02,0F,00,04,7A,3F,00,00,
34740488,00000524,false,Rx,0,6,03,0F,00,00,00,00,00,00,
34748501,00000521,false,Rx,0,6,00,0C,00,00,02,6A,00,00,
34749422,00000112,false,Rx,0,8,FA,1F,76,0B,86,01,65,49,
34749607,000001A1,false,Rx,0,5,7C,CB,00,00,8A,00,00,00,
34749850,000002FA,false,Rx,0,8,FD,FF,05,FF,FF,FF,FF,FF,
34750053,00000328,false,Rx,0,6,B5,00,00,00,87,1E,00,00,
34750307,0000003C,false,Rx,0,8,FF,5F,00,00,00,00,FF,FF,
34750438,000003E8,false,Rx,0,2,F1,FF,00,00,00,00,00,00,
34750687,000003E9,false,Rx,0,8,FE,FF,00,00,00,00,00,00,
34750911,0000012F,false,Rx,0,8,F5,28,86,1D,F1,35,30,80,
34751146,000002F1,false,Rx,0,8,36,10,7D,60,09,08,07,A0,
34751401,0000003F,false,Rx,0,8,00,00,00,80,00,80,64,CE,
34751636,000003F9,false,Rx,0,8,C0,F9,80,E0,43,3C,F3,FF,
34751859,00000431,false,Rx,0,8,CA,FF,0B,02,69,26,F3,4B,
34752084,00000432,false,Rx,0,8,2C,E2,10,A3,4E,FF,02,FF,
34752339,00000510,false,Rx,0,8,40,10,20,00,00,00,00,00,
34752585,0000051A,false,Rx,0,8,00,00,00,00,50,00,00,1A,
34752830,00000540,false,Rx,0,8,00,00,00,00,FD,3C,FF,40,
34759449,00000112,false,Rx,0,8,FA,1F,76,0B,86,01,65,49,
34760658,0000039D,false,Rx,0,5,23,5A,01,28,00,00,00,00,
34761384,00000522,false,Rx,0,6,01,0F,00,04,7A,24,00,00,
34768383,00000521,false,Rx,0,6,00,0D,00,00,02,6B,00,00,
