Time Stamp,ID,Extended,Dir,Bus,LEN,D1,D2,D3,D4,D5,D6,D7,D8
10275655,1801D08F,true,Rx,0,8,00,8C,00,5E,03,00,00,47,
10277270,0000039D,false,Rx,0,5,19,50,01,28,00,00,00,00,
10277504,00000112,false,Rx,0,8,FA,1F,76,0B,86,01,65,49,
10283385,00000523,false,Rx,0,6,02,09,00,04,7A,54,00,00,
10284380,00000524,false,Rx,0,6,03,09,00,00,00,04,00,00,
10287455,00000112,false,Rx,0,8,FA,1F,76,0B,86,01,65,49,
10287644,000001A1,false,Rx,0,5,7C,CB,00,00,8A,00,00,00,
10292422,00000521,false,Rx,0,6,00,0A,00,00,02,76,00,00,
10297466,00000112,false,Rx,0,8,FA,1F,76,0B,86,01,65,49,
10305371,00000522,false,Rx,0,6,01,09,00,04,7A,1E,00,00,
10307448,0000035D,false,Rx,0,8,02,00,88,08,00,00,20,F0,
10307679,00000112,false,Rx,0,8,FA,1F,76,0B,86,01,65,49,
10307862,000001A1,false,Rx,0,5,7C,CB,00,00,8A,00,00,00,
10310802,00000100,false,Rx,0,8,01,00,00,00,3D,09,3F,12,
10311047,00000101,false,Rx,0,8,00,00,00,00,00,00,00,00,
10312287,00000521,false,Rx,0,6,00,0B,00,00,02,73,00,00,
10317231,0000039D,false,Rx,0,5,1A,51,01,28,00,00,00,00,
10317471,00000112,false,Rx,0,8,FA,1F,76,0B,86,01,65,49,
10327477,00000112,false,Rx,0,8,FA,1F,76,0B,86,01,65,49,
10327718,0000003C,false,Rx,0,8,FF,5F,00,00,00,00,FF,FF,
10327963,0000003F,false,Rx,0,8,00,00,00,C0,00,C0,64,C0,
10328187,0000012F,false,Rx,0,8,F5,28,86,1D,F1,35,30,80,
10328368,000001A1,false,Rx,0,5,7C,CB,00,00,8A,00,00,00,
10328615,000002F1,false,Rx,0,8,36,10,7D,60,09,08,07,A0,
10328859,000003E9,false,Rx,0,8,FE,FF,00,00,00,00,00,00,
10329082,00000431,false,Rx,0,8,CA,FF,0B,02,69,26,F3,4B,
10332364,00000521,false,Rx,0,6,00,0C,00,00,02,5B,00,00,
10337484,00000112,false,Rx,0,8,FA,1F,76,0B,86,01,65,49,
10343350,00000523,false,Rx,0,6,02,0A,00,04,7A,4A,00,00,
10344379,00000524,false,Rx,0,6,03,0A,00,00,00,2B,00,00,
10347485,00000112,false,Rx,0,8,FA,1F,76,0B,86,01,65,49,
10347673,000001A1,false,Rx,0,5,7C,CB,00,00,8A,00,00,00,
10352411,00000521,false,Rx,0,6,00,0D,00,00,02,6F,00,00,
10357255,0000039D,false,Rx,0,5,1B,52,01,28,00,00,00,00,
10357495,00000112,false,Rx,0,8,FA,1F,76,0B,86,01,65,49,
10365357,00000522,false,Rx,0,6,01,0A,00,04,7A,38,00,00,
10367490,00000112,false,Rx,0,8,FA,1F,76,0B,86,01,65,49,
10367678,000001A1,false,Rx,0,5,7C,CB,00,00,8A,00,00,00,
10371046,000003B4,false,Rx,0,8,00,FF,30,F0,B8,FF,00,00,
10372272,00000521,false,Rx,0,6,00,0E,00,00,02,6C,00,00,
10375643,1801D08F,true,Rx,0,8,00,8C,00,5E,03,00,00,47,
10377500,00000112,false,Rx,0,8,FA,1F,76,0B,86,01,65,49,
10380189,00000351,false,Rx,0,8,20,0D,C8,00,DC,05,D3,0A,
10380429,00000355,false,Rx,0,8,27,00,64,00,86,01,00,00,
10380664,00000356,false,Rx,0,8,A5,72,FA,FF,E1,00,00,00,
10382546,0000035A,false,Rx,0,8,00,00,00,00,00,00,00,00,
10382780,0000035E,false,Rx,0,8,53,49,4D,50,20,42,4D,53,
10384534,00000370,false,Rx,0,8,53,49,4D,50,20,45,43,4F,
10386550,00000373,false,Rx,0,8,8E,0D,AA,0D,27,01,28,01,
10387498,00000112,false,Rx,0,8,FA,1F,76,0B,86,01,65,49,
10387680,000001A1,false,Rx,0,5,7C,CB,00,00,8A,00,00,00,
10388576,00000379,false,Rx,0,8,D2,00,00,00,01,00,00,00,
10390580,00000372,false,Rx,0,8,0E,00,00,00,00,00,00,00,
10391066,00000272,false,Rx,0,8,6A,F8,71,11,FF,FF,FF,FF,
10392348,00000521,false,Rx,0,6,00,0F,00,00,02,5D,00,00,
10397264,0000039D,false,Rx,0,5,1C,53,01,28,00,00,00,00,
10397504,00000112,false,Rx,0,8,FA,1F,76,0B,86,01,65,49,
10403350,00000523,false,Rx,0,6,02,0B,00,04,7A,50,00,00,
10404368,00000524,false,Rx,0,6,03,0B,00,00,00,25,00,00,
10407509,00000112,false,Rx,0,8,FA,1F,76,0B,86,01,65,49,
10407686,000001A1,false,Rx,0,5,7C,CB,00,00,8A,00,00,00,
10410803,00000100,false,Rx,0,8,01,00,00,00,3D,09,3F,12,
10411058,00000101,false,Rx,0,8,00,00,00,00,00,00,00,00,
10412383,00000521,false,Rx,0,6,00,00,00,00,02,79,00,00,
10417505,00000112,false,Rx,0,8,FA,1F,76,0B,86,01,65,49,
10425334,00000522,false,Rx,0,6,01,0B,00,04,7A,2E,00,00,
10427508,00000112,false,Rx,0,8,FA,1F,76,0B,86,01,65,49,
10427760,0000003C,false,Rx,0,8,FF,5F,00,00,00,00,FF,FF,
10427942,000001A1,false,Rx,0,5,7C,CB,00,00,8A,00,00,00,
10428196,000002FA,false,Rx,0,8,FD,FF,05,FF,FF,FF,FF,FF,
10428420,0000012F,false,Rx,0,8,F5,28,86,1D,F1,35,30,80,
10428656,000002F1,false,Rx,0,8,36,10,7D,60,09,08,07,A0,
10428900,0000003F,false,Rx,0,8,00,00,00,00,00,00,64,65,
10429155,000003E9,false,Rx,0,8,FE,FF,00,00,00,00,00,00,
10429380,00000431,false,Rx,0,8,CA,FF,0B,02,69,26,F3,4B,
10429604,00000432,false,Rx,0,8,2C,E2,10,A3,4E,FF,02,FF,
10429859,00000510,false,Rx,0,8,40,10,20,00,00,00,00,00,
10430105,0000051A,false,Rx,0,8,00,00,00,00,50,00,00,1A,
10430349,00000540,false,Rx,0,8,00,00,00,00,FD,3C,FF,40,
10432330,00000521,false,Rx,0,6,00,01,00,00,02,7D,00,00,
10437239,0000039D,false,Rx,0,5,1D,54,01,28,00,00,00,00,
10437532,00000112,false,Rx,0,8,FA,1F,76,0B,86,01,65,49,
10447539,00000112,false,Rx,0,8,FA,1F,76,0B,86,01,65,49,
10447718,000001A1,false,Rx,0,5,7C,CB,00,00,8A,00,00,00,
10452339,00000521,false,Rx,0,6,00,02,00,00,02,93,00,00,
10457541,00000112,false,Rx,0,8,FA,1F,76,0B,86,01,65,49,
10463335,00000523,false,Rx,0,6,02,0C,00,04,7A,4C,00,00,
10464352,00000524,false,Rx,0,6,03,0C,FF,FF,FF,F2,00,00,
10467543,00000112,false,Rx,0,8,FA,1F,76,0B,86,01,65,49,
10467722,000001A1,false,Rx,0,5,7C,CB,00,00,8A,00,00,00,
10472375,00000521,false,Rx,0,6,00,03,00,00,02,6F,00,00,
10475657,1801D08F,true,Rx,0,8,00,8C,00,5E,03,00,00,47,
10477251,0000039D,false,Rx,0,5,1E,55,01,28,00,00,00,00,
10477548,00000112,false,Rx,0,8,FA,1F,76,0B,86,01,65,49,
10485317,00000522,false,Rx,0,6,01,0C,00,04,7A,2A,00,00,
10487553,00000112,false,Rx,0,8,FA,1F,76,0B,86,01,65,49,
10487732,000001A1,false,Rx,0,5,7C,CB,00,00,8A,00,00,00,
10492320,00000521,false,Rx,0,6,00,04,00,00,02,75,00,00,
10497555,00000112,false,Rx,0,8,FA,1F,76,0B,86,01,65,49,
10507560,00000112,false,Rx,0,8,FA,1F,76,0B,86,01,65,49,
10507737,000001A1,false,Rx,0,5,7C,CB,00,00,8A,00,00,00,
10510811,00000100,false,Rx,0,8,01,00,00,00,3D,09,3F,12,
10511055,00000101,false,Rx,0,8,00,00,00,00,00,00,00,00,
10512316,00000521,false,Rx,0,6,00,05,00,00,02,53,00,00,
10517204,0000039D,false,Rx,0,5,1F,56,01,28,00,00,00,00,
10517562,00000112,false,Rx,0,8,FB,1F,76,0B,86,01,65,49,
10523313,00000523,false,Rx,0,6,02,0D,00,04,7A,54,00,00,
10524340,00000524,false,Rx,0,6,03,0D,00,00,00,2B,00,00,
10527564,00000112,false,Rx,0,8,FB,1F,76,0B,86,01,65,49,
10527815,0000003C,false,Rx,0,8,FF,5F,00,00,00,00,FF,FF,
10528060,0000003F,false,Rx,0,8,00,00,00,40,00,40,64,6B,
10528284,0000012F,false,Rx,0,8,F5,28,86,1D,F1,35,30,80,
10528466,000001A1,false,Rx,0,5,7C,CB,00,00,8A,00,00,00,
10528700,000002F1,false,Rx,0,8,36,10,7D,60,09,08,07,A0,
10528945,000003E9,false,Rx,0,8,FE,FF,00,00,00,00,00,00,
10529169,00000431,false,Rx,0,8,CA,FF,0B,02,69,26,F3,4B,
10532346,00000521,false,Rx,0,6,00,06,00,00,02,94,00,00,
10537569,00000112,false,Rx,0,8,FA,1F,76,0B,86,01,65,49,
10545220,00000522,false,Rx,0,6,01,0D,00,04,7A,11,00,00,
10547573,00000112,false,Rx,0,8,FA,1F,75,0B,86,01,65,49,
10547761,000001A1,false,Rx,0,5,7C,CB,00,00,8A,00,00,00,
10552223,00000521,false,Rx,0,6,00,07,00,00,02,82,00,00,
10557236,0000039D,false,Rx,0,5,20,57,01,28,00,00,00,00,
10557582,00000112,false,Rx,0,8,FA,1F,75,0B,86,01,65,49,
10567578,00000112,false,Rx,0,8,FA,1F,75,0B,86,01,65,49,
10567766,000001A1,false,Rx,0,5,7C,CB,00,00,8A,00,00,00,
10571385,000003B4,false,Rx,0,8,00,FF,30,F0,B8,FF,00,00,
10572308,00000521,false,Rx,0,6,00,08,00,00,02,67,00,00,
10575636,1801D08F,true,Rx,0,8,00,8C,00,5E,03,00,00,47,
10577588,00000112,false,Rx,0,8,FA,1F,75,0B,86,01,65,49,
10583306,00000523,false,Rx,0,6,02,0E,00,04,7A,52,00,00,
10584312,00000524,false,Rx,0,6,03,0E,FF,FF,FF,F6,00,00,
10587589,00000112,false,Rx,0,8,FA,1F,75,0B,86,01,65,49,
10587766,000001A1,false,Rx,0,5,7C,CB,00,00,8A,00,00,00,
10591617,00000272,false,Rx,0,8,37,F9,71,11,FF,FF,FF,FF,
10592350,00000521,false,Rx,0,6,00,09,00,00,02,60,00,00,
10597239,0000039D,false,Rx,0,5,21,58,01,28,00,00,00,00,
10597596,00000112,false,Rx,0,8,FA,1F,75,0B,86,01,65,49,
10605290,00000522,false,Rx,0,6,01,0E,00,04,7A,30,00,00,
10607600,00000112,false,Rx,0,8,FA,1F,76,0B,86,01,65,49,
10607778,000001A1,false,Rx,0,5,7C,CB,00,00,8A,00,00,00,
10610799,00000100,false,Rx,0,8,01,00,00,00,3D,09,3F,12,
10611054,00000101,false,Rx,0,8,00,00,00,00,00,00,00,00,
10612211,00000521,false,Rx,0,6,00,0A,00,00,02,85,00,00,
10617595,00000112,false,Rx,0,8,FA,1F,76,0B,86,01,65,49,
10627601,00000112,false,Rx,0,8,FA,1F,76,0B,86,01,65,49,
10627852,0000003C,false,Rx,0,8,FF,5F,00,00,00,00,FF,FF,
10628034,000001A1,false,Rx,0,5,7C,CB,00,00,8A,00,00,00,
10628279,000002FA,false,Rx,0,8,FD,FF,05,FF,FF,FF,FF,FF,
10628503,0000012F,false,Rx,0,8,F5,28,86,1D,F1,35,30,80,
10628748,000002F1,false,Rx,0,8,36,10,7D,60,09,08,07,A0,
10628993,0000003F,false,Rx,0,8,00,00,00,80,00,80,64,CE,
10629238,000003E9,false,Rx,0,8,FE,FF,00,00,00,00,00,00,
10629461,00000431,false,Rx,0,8,CA,FF,0B,02,69,26,F3,4B,
10629698,00000432,false,Rx,0,8,2C,E2,10,A3,4E,FF,02,FF,
10629943,00000510,false,Rx,0,8,40,10,20,00,00,00,00,00,
10630187,0000051A,false,Rx,0,8,00,00,00,00,50,00,00,1A,
10630432,00000540,false,Rx,0,8,00,00,00,00,FD,3C,FF,40,
10632296,00000521,false,Rx,0,6,00,0B,00,00,02,5E,00,00,
10637257,0000039D,false,Rx,0,5,22,59,01,28,00,00,00,00,
10637498,0000035D,false,Rx,0,8,00,00,00,00,00,00,00,00,
10637732,00000112,false,Rx,0,8,FA,1F,76,0B,86,01,65,49,
10643287,00000523,false,Rx,0,6,02,0F,00,04,7A,89,00,00,
10644305,00000524,false,Rx,0,6,03,0F,00,00,00,12,00,00,
10647623,00000112,false,Rx,0,8,FA,1F,76,0B,86,01,65,49,
10647811,000001A1,false,Rx,0,5,7C,CB,00,00,8A,00,00,00,
10652327,00000521,false,Rx,0,6,00,0C,00,00,02,4F,00,00,
10657624,00000112,false,Rx,0,8,FB,1F,76,0B,86,01,65,49,
10661529,000003C3,false,Rx,0,8,83,04,C1,F1,0C,43,12,0C,
10665274,00000522,false,Rx,0,6,01,0F,00,04,7A,11,00,00,
10667626,00000112,false,Rx,0,8,FB,1F,75,0B,86,01,65,49,
10667814,000001A1,false,Rx,0,5,7C,CB,00,00,8A,00,00,00,
10672195,00000521,false,Rx,0,6,00,0D,00,00,02,56,00,00,
10675645,1801D08F,true,Rx,0,8,00,8C,00,5E,03,00,00,47,
10677208,0000039D,false,Rx,0,5,23,5A,01,28,00,00,00,00,
10677632,00000112,false,Rx,0,8,FB,1F,75,0B,86,01,65,49,
10687640,00000112,false,Rx,0,8,FB,1F,75,0B,86,01,65,49,
10687818,000001A1,false,Rx,0,5,7C,CB,00,00,8A,00,00,00,
10692269,00000521,false,Rx,0,6,00,0E,00,00,02,68,00,00,
10697640,00000112,false,Rx,0,8,FA,1F,75,0B,86,01,65,49,
10703275,00000523,false,Rx,0,6,02,00,00,04,7A,20,00,00,
10704293,00000524,false,Rx,0,6,03,00,00,00,00,00,00,00,
10707643,00000112,false,Rx,0,8,FA,1F,75,0B,86,01,65,49,
10707820,000001A1,false,Rx,0,5,7C,CB,00,00,8A,00,00,00,
10710800,00000100,false,Rx,0,8,01,00,00,00,3D,09,3F,12,
10711056,00000101,false,Rx,0,8,00,00,00,00,00,00,00,00,
10712306,00000521,false,Rx,0,6,00,0F,00,00,02,70,00,00,
10717205,0000039D,false,Rx,0,5,24,5B,01,28,00,00,00,00,
10717644,00000112,false,Rx,0,8,FA,1F,75,0B,86,01,65,49,
10725181,00000522,false,Rx,0,6,01,00,00,04,7A,43,00,00,
10727649,00000112,false,Rx,0,8,FA,1F,76,0B,86,01,65,49,
10727899,0000003C,false,Rx,0,8,FF,5F,00,00,00,00,FF,FF,
10728145,0000003F,false,Rx,0,8,00,00,00,C0,00,C0,64,C0,
10728368,0000012F,false,Rx,0,8,F5,28,86,1D,F1,35,30,80,
10728551,000001A1,false,Rx,0,5,7C,CB,00,00,8A,00,00,00,
10728786,000002F1,false,Rx,0,8,36,10,7D,60,09,08,07,A0,
10729040,000003E9,false,Rx,0,8,FE,FF,00,00,00,00,00,00,
10729264,00000431,false,Rx,0,8,CA,FF,0B,02,69,26,F3,4B,
10732176,00000521,false,Rx,0,6,00,00,00,00,02,76,00,00,
10737664,00000112,false,Rx,0,8,FA,1F,76,0B,86,01,65,49,
10747669,00000112,false,Rx,0,8,FA,1F,76,0B,86,01,65,49,
10747846,000001A1,false,Rx,0,5,7C,CB,00,00,8A,00,00,00,
10752256,00000521,false,Rx,0,6,00,01,00,00,02,5A,00,00,
10757268,0000039D,false,Rx,0,5,25,5C,01,28,00,00,00,00,
10757666,00000112,false,Rx,0,8,FA,1F,76,0B,86,01,65,49,
10763260,00000523,false,Rx,0,6,02,01,00,04,7A,35,00,00,
10764278,00000524,false,Rx,0,6,03,01,FF,FF,FF,FC,00,00,
10767670,00000112,false,Rx,0,8,FA,1F,76,0B,86,01,65,49,
10767858,000001A1,false,Rx,0,5,7C,CB,00,00,8A,00,00,00,
10771932,000003B4,false,Rx,0,8,00,FF,30,F0,B8,FF,00,00,
10772298,00000521,false,Rx,0,6,00,02,00,00,02,59,00,00,
10775647,1801D08F,true,Rx,0,8,00,8C,00,5E,03,00,00,47,
10777672,00000112,false,Rx,0,8,FA,1F,76,0B,86,01,65,49,
10785247,00000522,false,Rx,0,6,01,01,00,04,7A,2E,00,00,
10787673,00000112,false,Rx,0,8,FA,1F,76,0B,86,01,65,49,
10787862,000001A1,false,Rx,0,5,7C,CB,00,00,8A,00,00,00,
10791745,00000272,false,Rx,0,8,D0,FA,71,11,FF,FF,FF,FF,
10792247,00000521,false,Rx,0,6,00,03,00,00,02,67,00,00,
10797220,0000039D,false,Rx,0,5,26,5D,01,28,00,00,00,00,
10797680,00000112,false,Rx,0,8,FA,1F,76,0B,86,01,65,49,
10807688,00000112,false,Rx,0,8,FA,1F,76,0B,86,01,65,49,
10807867,000001A1,false,Rx,0,5,7C,CB,00,00,8A,00,00,00,
10810794,00000100,false,Rx,0,8,01,00,00,00,3D,09,3F,12,
10811050,00000101,false,Rx,0,8,00,00,00,00,00,00,00,00,
10812237,00000521,false,Rx,0,6,00,04,00,00,02,6C,00,00,
10817684,00000112,false,Rx,0,8,FA,1F,76,0B,86,01,65,49,
10823247,00000523,false,Rx,0,6,02,02,00,04,7A,0C,00,00,
10824263,00000524,false,Rx,0,6,03,02,00,00,00,0C,00,00,
10827686,00000112,false,Rx,0,8,FA,1F,76,0B,86,01,65,49,
10827938,0000003C,false,Rx,0,8,FF,5F,00,00,00,00,FF,FF,
10828119,000001A1,false,Rx,0,5,7C,CB,00,00,8A,00,00,00,
10828374,000002FA,false,Rx,0,8,FD,FF,05,FF,FF,FF,FF,FF,
10828599,0000012F,false,Rx,0,8,F5,28,86,1D,F1,35,30,80,
10828833,000002F1,false,Rx,0,8,36,10,7D,60,09,08,07,A0,
10829078,0000003F,false,Rx,0,8,00,00,00,00,00,00,64,65,
10829334,000003E9,false,Rx,0,8,FE,FF,00,00,00,00,00,00,
10829558,00000431,false,Rx,0,8,CA,FF,0B,02,69,26,F3,4B,
10829782,00000432,false,Rx,0,8,2C,E2,10,A3,4E,FF,02,FF,
10830036,00000510,false,Rx,0,8,40,10,20,00,00,00,00,00,
10830282,0000051A,false,Rx,0,8,00,00,00,00,50,00,00,1A,
10830528,00000540,false,Rx,0,8,00,00,00,00,FD,3C,FF,40,
10832275,00000521,false,Rx,0,6,00,05,00,00,02,66,00,00,
10837248,0000039D,false,Rx,0,5,27,5E,01,28,00,00,00,00,
10837709,00000112,false,Rx,0,8,FA,1F,76,0B,86,01,65,49,
10845152,00000522,false,Rx,0,6,01,02,00,04,7A,09,00,00,
10847715,00000112,false,Rx,0,8,FA,1F,75,0B,86,01,65,49,
10847894,000001A1,false,Rx,0,5,7C,CB,00,00,8A,00,00,00,
10852229,00000521,false,Rx,0,6,00,06,00,00,02,84,00,00,
10857716,00000112,false,Rx,0,8,FA,1F,75,0B,86,01,65,49,
10867721,00000112,false,Rx,0,8,FA,1F,75,0B,86,01,65,49,
10867900,000001A1,false,Rx,0,5,7C,CB,00,00,8A,00,00,00,
10872152,00000521,false,Rx,0,6,00,07,00,00,02,73,00,00,
10875634,1801D08F,true,Rx,0,8,00,8C,00,5E,03,00,00,47,
10877187,0000039D,false,Rx,0,5,28,5F,01,28,00,00,00,00,
10877721,00000112,false,Rx,0,8,FA,1F,75,0B,86,01,65,49,
10883229,00000523,false,Rx,0,6,02,03,00,04,7A,25,00,00,
10884245,00000524,false,Rx,0,6,03,03,FF,FF,FF,FA,00,00,
10887732,00000112,false,Rx,0,8,FA,1F,75,0B,86,01,65,49,
10887910,000001A1,false,Rx,0,5,7C,CB,00,00,8A,00,00,00,
10892266,00000521,false,Rx,0,6,00,08,00,00,02,6C,00,00,
10897733,00000112,false,Rx,0,8,FA,1F,75,0B,86,01,65,49,
10905142,00000522,false,Rx,0,6,01,03,00,04,7A,4B,00,00,
10907737,00000112,false,Rx,0,8,FA,1F,76,0B,86,01,65,49,
10907915,000001A1,false,Rx,0,5,7C,CB,00,00,8A,00,00,00,
10910789,00000100,false,Rx,0,8,01,00,00,00,3D,09,3F,12,
10911044,00000101,false,Rx,0,8,00,00,00,00,00,00,00,00,
10912126,00000521,false,Rx,0,6,00,09,00,00,02,6B,00,00,
10917192,0000039D,false,Rx,0,5,19,50,01,28,00,00,00,00,
10917737,00000112,false,Rx,0,8,FA,1F,76,0B,86,01,65,49,
10927736,00000112,false,Rx,0,8,FA,1F,76,0B,86,01,65,49,
10927986,0000003C,false,Rx,0,8,FF,5F,00,00,00,00,FF,FF,
10928231,0000003F,false,Rx,0,8,00,00,00,40,00,40,64,6B,
10928455,0000012F,false,Rx,0,8,F5,28,86,1D,F1,35,30,80,
10928639,000001A1,false,Rx,0,5,7C,CB,00,00,8A,00,00,00,
10928873,000002F1,false,Rx,0,8,36,10,7D,60,09,08,07,A0,
10929127,000003E9,false,Rx,0,8,FE,FF,00,00,00,00,00,00,
10929352,00000431,false,Rx,0,8,CA,FF,0B,02,69,26,F3,4B,
10932221,00000521,false,Rx,0,6,00,0A,00,00,02,51,00,00,
10937752,00000112,false,Rx,0,8,FB,1F,76,0B,86,01,65,49,
10943218,00000523,false,Rx,0,6,02,04,00,04,7A,31,00,00,
10944224,00000524,false,Rx,0,6,03,04,FF,FF,FF,F8,00,00,
10947754,00000112,false,Rx,0,8,FB,1F,76,0B,86,01,65,49,
10947941,000001A1,false,Rx,0,5,7C,CB,00,00,8A,00,00,00,
10952246,00000521,false,Rx,0,6,00,0B,00,00,02,60,00,00,
10957259,0000039D,false,Rx,0,5,1A,51,01,28,00,00,00,00,
10957763,00000112,false,Rx,0,8,FA,1F,76,0B,86,01,65,49,
10965205,00000522,false,Rx,0,6,01,04,00,04,7A,2A,00,00,
10967303,0000035D,false,Rx,0,8,01,00,00,00,00,00,00,00,
10967766,00000112,false,Rx,0,8,FA,1F,76,0B,86,01,65,49,
10967947,000001A1,false,Rx,0,5,7C,CB,00,00,8A,00,00,00,
10972067,000003B4,false,Rx,0,8,00,FF,30,F0,B8,FF,00,00,
10972267,00000521,false,Rx,0,6,00,0C,00,00,02,68,00,00,
10975666,1801D08F,true,Rx,0,8,00,8C,00,5E,03,00,00,47,
10977766,00000112,false,Rx,0,8,FA,1F,76,0B,86,01,65,49,
10987770,00000112,false,Rx,0,8,FA,1F,76,0B,86,01,65,49,
10987947,000001A1,false,Rx,0,5,7C,CB,00,00,8A,00,00,00,
10992092,00000272,false,Rx,0,8,8D,FB,71,11,FF,FF,FF,FF,
10992292,00000521,false,Rx,0,6,00,0D,00,00,02,73,00,00,
10997241,0000039D,false,Rx,0,5,1B,52,01,28,00,00,00,00,
10997776,00000112,false,Rx,0,8,FA,1F,76,0B,86,01,65,49,
11003192,00000523,false,Rx,0,6,02,05,00,04,7A,41,00,00,
11004219,00000524,false,Rx,0,6,03,05,00,00,00,0A,00,00,
11007771,00000112,false,Rx,0,8,FA,1F,76,0B,86,01,65,49,
11007959,000001A1,false,Rx,0,5,7C,CB,00,00,8A,00,00,00,
11010782,00000100,false,Rx,0,8,01,00,00,00,3D,09,3F,12,
11011036,00000101,false,Rx,0,8,00,00,00,00,00,00,00,00,
11012235,00000521,false,Rx,0,6,00,0E,00,00,02,73,00,00,
11012468,00000351,false,Rx,0,8,20,0D,C8,00,DC,05,D3,0A,
11012703,00000355,false,Rx,0,8,27,00,64,00,86,01,00,00,
11012949,00000356,false,Rx,0,8,A5,72,FA,FF,E1,00,00,00,
11014802,0000035A,false,Rx,0,8,00,00,00,00,00,00,00,00,
11015036,0000035E,false,Rx,0,8,53,49,4D,50,20,42,4D,53,
11016792,00000370,false,Rx,0,8,53,49,4D,50,20,45,43,4F,
11017782,00000112,false,Rx,0,8,FA,1F,76,0B,86,01,65,49,
11018812,00000373,false,Rx,0,8,8E,0D,AA,0D,27,01,28,01,
11020827,00000379,false,Rx,0,8,D2,00,00,00,01,00,00,00,
11022830,00000372,false,Rx,0,8,0E,00,00,00,00,00,00,00,
11025192,00000522,false,Rx,0,6,01,05,00,04,7A,2A,00,00,
11027783,00000112,false,Rx,0,8,FA,1F,76,0B,86,01,65,49,
11028034,0000003C,false,Rx,0,8,FF,5F,00,00,00,00,FF,FF,
11028215,000001A1,false,Rx,0,5,7C,CB,00,00,8A,00,00,00,
11028461,000002FA,false,Rx,0,8,FD,FF,05,FF,FF,FF,FF,FF,
11028685,0000012F,false,Rx,0,8,F5,28,86,1D,F1,35,30,80,
11028919,000002F1,false,Rx,0,8,36,10,7D,60,09,08,07,A0,
11029165,0000003F,false,Rx,0,8,00,00,00,80,00,80,64,CE,
11029419,000003E9,false,Rx,0,8,FE,FF,00,00,00,00,00,00,
11029644,00000431,false,Rx,0,8,CA,FF,0B,02,69,26,F3,4B,
11029869,00000432,false,Rx,0,8,2C,E2,10,A3,4E,FF,02,FF,
11030126,00000510,false,Rx,0,8,40,10,20,00,00,00,00,00,
11030370,0000051A,false,Rx,0,8,00,00,00,00,50,00,00,1A,
11030617,00000540,false,Rx,0,8,00,00,00,00,FD,3C,FF,40,
11032111,00000521,false,Rx,0,6,00,0F,00,00,02,5E,00,00,
11037196,0000039D,false,Rx,0,5,1C,53,01,28,00,00,00,00,
11037804,00000112,false,Rx,0,8,FA,1F,76,0B,86,01,65,49,
11047801,00000112,false,Rx,0,8,FA,1F,76,0B,86,01,65,49,
11047989,000001A1,false,Rx,0,5,7C,CB,00,00,8A,00,00,00,
11052179,00000521,false,Rx,0,6,00,00,00,00,02,75,00,00,
11057804,00000112,false,Rx,0,8,FA,1F,76,0B,86,01,65,49,
11063176,00000523,false,Rx,0,6,02,06,00,04,7A,0E,00,00,
11064214,00000524,false,Rx,0,6,03,06,00,00,00,1A,00,00,
11067808,00000112,false,Rx,0,8,FA,1F,76,0B,86,01,65,49,
11067996,000001A1,false,Rx,0,5,7C,CB,00,00,8A,00,00,00,
11072229,00000521,false,Rx,0,6,00,01,00,00,02,6C,00,00,
11075637,1801D08F,true,Rx,0,8,00,8C,00,5E,03,00,00,47,
11077190,0000039D,false,Rx,0,5,1D,54,01,28,00,00,00,00,
11077819,00000112,false,Rx,0,8,FA,1F,76,0B,86,01,65,49,
11085174,00000522,false,Rx,0,6,01,06,00,04,79,F5,00,00,
11087811,00000112,false,Rx,0,8,FA,1F,75,0B,86,01,65,49,
11087999,000001A1,false,Rx,0,5,7C,CB,00,00,8A,00,00,00,
11092092,00000521,false,Rx,0,6,00,02,00,00,02,51,00,00,
11097822,00000112,false,Rx,0,8,FB,1F,75,0B,86,01,65,49,
11107819,00000112,false,Rx,0,8,FB,1F,75,0B,86,01,65,49,
11108007,000001A1,false,Rx,0,5,7C,CB,00,00,8A,00,00,00,
11110746,00000100,false,Rx,0,8,01,00,00,00,3D,09,39,12,
11111001,00000101,false,Rx,0,8,00,00,00,00,00,00,00,00,
11112168,00000521,false,Rx,0,6,00,03,00,00,02,53,00,00,
11117222,0000039D,false,Rx,0,5,1E,55,01,28,00,00,00,00,
11117830,00000112,false,Rx,0,8,FB,1F,75,0B,86,01,65,49,
11123171,00000523,false,Rx,0,6,02,07,00,04,7A,48,00,00,
11124188,00000524,false,Rx,0,6,03,07,00,00,00,04,00,00,
11127824,00000112,false,Rx,0,8,FB,1F,75,0B,86,01,65,49,
11128075,0000003C,false,Rx,0,8,FF,5F,00,00,00,00,FF,FF,
11128321,0000003F,false,Rx,0,8,00,00,00,C0,00,C0,64,C0,
11128545,0000012F,false,Rx,0,8,F5,28,86,1D,F1,35,30,80,
11128727,000001A1,false,Rx,0,5,7C,CB,00,00,8A,00,00,00,
11128961,000002F1,false,Rx,0,8,36,10,7D,60,09,08,07,A0,
11129216,000003E9,false,Rx,0,8,FE,FF,00,00,00,00,00,00,
11129440,00000431,false,Rx,0,8,CA,FF,0B,02,69,26,F3,4B,
11132205,00000521,false,Rx,0,6,00,04,00,00,02,6F,00,00,
11137841,00000112,false,Rx,0,8,FA,1F,75,0B,86,01,65,49,
11145081,00000522,false,Rx,0,6,01,07,00,04,7A,1A,00,00,
11147844,00000112,false,Rx,0,8,FA,1F,76,0B,86,01,65,49,
11148032,000001A1,false,Rx,0,5,7C,CB,00,00,8A,00,00,00,
11152073,00000521,false,Rx,0,6,00,05,00,00,02,6E,00,00,
11157244,0000039D,false,Rx,0,5,1F,56,01,28,00,00,00,00,
11157852,00000112,false,Rx,0,8,FA,1F,76,0B,86,01,65,49,
11167851,00000112,false,Rx,0,8,FA,1F,76,0B,86,01,65,49,
11168030,000001A1,false,Rx,0,5,7C,CB,00,00,8A,00,00,00,
11172157,00000521,false,Rx,0,6,00,06,00,00,02,63,00,00,
11172302,00000337,false,Rx,0,2,FF,FF,00,00,00,00,00,00,
11172578,000003B4,false,Rx,0,8,00,FF,30,F0,B8,FF,00,00,
11175634,1801D08F,true,Rx,0,8,00,8C,00,5E,03,00,00,47,
11177376,000005BD,false,Rx,0,8,B3,80,00,00,00,00,00,00,
11177852,00000112,false,Rx,0,8,FA,1F,76,0B,86,01,65,49,
11183149,00000523,false,Rx,0,6,02,08,00,04,7A,45,00,00,
11184188,00000524,false,Rx,0,6,03,08,00,00,00,06,00,00,
11187854,00000112,false,Rx,0,8,FA,1F,76,0B,86,01,65,49,
11188044,000001A1,false,Rx,0,5,7C,CB,00,00,8A,00,00,00,
11192189,00000521,false,Rx,0,6,00,07,00,00,02,5D,00,00,
11192693,00000272,false,Rx,0,8,03,FC,71,11,FF,FF,FF,FF,
11197222,0000039D,false,Rx,0,5,20,57,01,28,00,00,00,00,
11197860,00000112,false,Rx,0,8,FA,1F,76,0B,86,01,65,49,
11205146,00000522,false,Rx,0,6,01,08,00,04,7A,38,00,00,
11207858,00000112,false,Rx,0,8,FA,1F,76,0B,86,01,65,49,
11208047,000001A1,false,Rx,0,5,7C,CB,00,00,8A,00,00,00,
11210742,00000100,false,Rx,0,8,01,00,00,00,3D,09,3F,12,
11210997,00000101,false,Rx,0,8,00,00,00,00,00,00,00,00,
11212144,00000521,false,Rx,0,6,00,08,00,00,02,67,00,00,
11212461,00000390,false,Rx,0,4,F0,FF,FF,FF,00,00,00,00,
11217867,00000112,false,Rx,0,8,FA,1F,76,0B,86,01,65,49,
11227874,00000112,false,Rx,0,8,FA,1F,76,0B,86,01,65,49,
11228053,000001A1,false,Rx,0,5,7C,CB,00,00,8A,00,00,00,
11228296,000002FA,false,Rx,0,8,FD,FF,05,FF,FF,FF,FF,FF,
11228500,00000328,false,Rx,0,6,0A,00,00,00,87,1E,00,00,
11228756,0000003C,false,Rx,0,8,FF,5F,00,00,00,00,FF,FF,
11228885,000003E8,false,Rx,0,2,F1,FF,00,00,00,00,00,00,
11229139,000003E9,false,Rx,0,8,FE,FF,00,00,00,00,00,00,
11229362,0000012F,false,Rx,0,8,F5,28,86,1D,F1,35,30,80,
11229598,000002F1,false,Rx,0,8,36,10,7D,60,09,08,07,A0,
11229842,0000003F,false,Rx,0,8,00,00,00,00,00,00,64,65,
11230078,000003F9,false,Rx,0,8,C0,F9,80,E0,43,3C,F3,FF,
11230313,00000431,false,Rx,0,8,CA,FF,0B,02,69,26,F3,4B,
11230537,00000432,false,Rx,0,8,2C,E2,10,A3,4E,FF,02,FF,
11230792,00000510,false,Rx,0,8,40,10,20,00,00,00,00,00,
11231038,0000051A,false,Rx,0,8,00,00,00,00,50,00,00,1A,
11231282,00000540,false,Rx,0,8,00,00,00,00,FD,3C,FF,40,
11232132,00000521,false,Rx,0,6,00,09,00,00,02,63,00,00,
11237176,0000039D,false,Rx,0,5,21,58,01,28,00,00,00,00,
11237898,00000112,false,Rx,0,8,FA,1F,76,0B,86,01,65,49,
11243136,00000523,false,Rx,0,6,02,09,00,04,7A,35,00,00,
11244154,00000524,false,Rx,0,6,03,09,00,00,00,06,00,00,
11247904,00000112,false,Rx,0,8,FA,1F,76,0B,86,01,65,49,
11248081,000001A1,false,Rx,0,5,7C,CB,00,00,8A,00,00,00,
11252175,00000521,false,Rx,0,6,00,0A,00,00,02,72,00,00,
11257907,00000112,false,Rx,0,8,FA,1F,76,0B,86,01,65,49,
11265042,00000522,false,Rx,0,6,01,09,00,04,7A,62,00,00,
11267901,00000112,false,Rx,0,8,FA,1F,76,0B,86,01,65,49,
11268089,000001A1,false,Rx,0,5,7C,CB,00,00,8A,00,00,00,
11272046,00000521,false,Rx,0,6,00,0B,00,00,02,61,00,00,
11275645,1801D08F,true,Rx,0,8,00,8C,00,5E,03,00,00,47,
11277176,0000039D,false,Rx,0,5,22,59,01,28,00,00,00,00,
11277910,00000112,false,Rx,0,8,FA,1F,76,0B,86,01,65,49,
11287906,00000112,false,Rx,0,8,FA,1F,76,0B,86,01,65,49,
11288094,000001A1,false,Rx,0,5,7C,CB,00,00,8A,00,00,00,
11292114,00000521,false,Rx,0,6,00,0C,00,00,02,68,00,00,
11297284,0000035D,false,Rx,0,8,02,00,88,08,00,00,20,F0,
11297914,00000112,false,Rx,0,8,FA,1F,76,0B,86,01,65,49,
11303119,00000523,false,Rx,0,6,02,0A,00,04,7A,43,00,00,
11304138,00000524,false,Rx,0,6,03,0A,FF,FF,FF,FA,00,00,
11307920,00000112,false,Rx,0,8,FA,1F,76,0B,86,01,65,49,
11308098,000001A1,false,Rx,0,5,7C,CB,00,00,8A,00,00,00,
11310741,00000100,false,Rx,0,8,01,00,00,00,3D,09,39,12,
11310997,00000101,false,Rx,0,8,00,00,00,00,00,00,00,00,
11312163,00000521,false,Rx,0,6,00,0D,00,00,02,5C,00,00,
11317218,0000039D,false,Rx,0,5,23,5A,01,28,00,00,00,00,
11317920,00000112,false,Rx,0,8,FA,1F,76,0B,86,01,65,49,
11325109,00000522,false,Rx,0,6,01,0A,00,04,7A,03,00,00,
11327926,00000112,false,Rx,0,8,FA,1F,75,0B,86,01,65,49,
11328177,0000003C,false,Rx,0,8,FF,5F,00,00,00,00,FF,FF,
11328421,0000003F,false,Rx,0,8,00,00,00,40,00,40,64,6B,
11328647,0000012F,false,Rx,0,8,F5,28,86,1D,F1,35,30,80,
11328829,000001A1,false,Rx,0,5,7C,CB,00,00,8A,00,00,00,
11329062,000002F1,false,Rx,0,8,36,10,7D,60,09,08,07,A0,
11329308,000003E9,false,Rx,0,8,FE,FF,00,00,00,00,00,00,
11329533,00000431,false,Rx,0,8,CA,FF,0B,02,69,26,F3,4B,
11332032,00000521,false,Rx,0,6,00,0E,00,00,02,61,00,00,
11337941,00000112,false,Rx,0,8,FA,1F,75,0B,86,01,65,49,
11347936,00000112,false,Rx,0,8,FA,1F,75,0B,86,01,65,49,
11348124,000001A1,false,Rx,0,5,7C,CB,00,00,8A,00,00,00,
11352112,00000521,false,Rx,0,6,00,0F,00,00,02,6A,00,00,
11357262,0000039D,false,Rx,0,5,24,5B,01,28,00,00,00,00,
11357944,00000112,false,Rx,0,8,FA,1F,75,0B,86,01,65,49,
11363108,00000523,false,Rx,0,6,02,0B,00,04,7A,5A,00,00,
11364124,00000524,false,Rx,0,6,03,0B,FF,FF,FF,F8,00,00,
11367948,00000112,false,Rx,0,8,FA,1F,75,0B,86,01,65,49,
11368126,000001A1,false,Rx,0,5,7C,CB,00,00,8A,00,00,00,
11372156,00000521,false,Rx,0,6,00,00,00,00,02,68,00,00,
11372953,000003B4,false,Rx,0,8,00,FF,30,F0,B8,FF,00,00,
11375619,1801D08F,true,Rx,0,8,00,8C,00,5E,03,00,00,47,
11377949,00000112,false,Rx,0,8,FA,1F,75,0B,86,01,65,49,
11385092,00000522,false,Rx,0,6,01,0B,00,04,7A,53,00,00,
11387951,00000112,false,Rx,0,8,FA,1F,76,0B,86,01,65,49,
11388128,000001A1,false,Rx,0,5,7C,CB,00,00,8A,00,00,00,
11392095,00000521,false,Rx,0,6,00,01,00,00,02,6A,00,00,
11392776,00000272,false,Rx,0,8,5E,FD,71,11,FF,FF,FF,FF,
11397180,0000039D,false,Rx,0,5,25,5C,01,28,00,00,00,00,
11397956,00000112,false,Rx,0,8,FA,1F,76,0B,86,01,65,49,
11407955,00000112,false,Rx,0,8,FA,1F,76,0B,86,01,65,49,
11408143,000001A1,false,Rx,0,5,7C,CB,00,00,8A,00,00,00,
11410745,00000100,false,Rx,0,8,01,00,00,00,3D,09,3F,12,
11411000,00000101,false,Rx,0,8,00,00,00,00,00,00,00,00,
11412094,00000521,false,Rx,0,6,00,02,00,00,02,58,00,00,
11417962,00000112,false,Rx,0,8,FA,1F,76,0B,86,01,65,49,
11423091,00000523,false,Rx,0,6,02,0C,00,04,7A,66,00,00,
11424108,00000524,false,Rx,0,6,03,0C,FF,FF,FF,F4,00,00,
11427963,00000112,false,Rx,0,8,FA,1F,76,0B,86,01,65,49,
11428214,0000003C,false,Rx,0,8,FF,5F,00,00,00,00,FF,FF,
11428397,000001A1,false,Rx,0,5,7C,CB,00,00,8A,00,00,00,
11428641,000002FA,false,Rx,0,8,FD,FF,05,FF,FF,FF,FF,FF,
11428865,0000012F,false,Rx,0,8,F5,28,86,1D,F1,35,30,80,
11429109,000002F1,false,Rx,0,8,36,10,7D,60,09,08,07,A0,
11429355,0000003F,false,Rx,0,8,00,00,00,80,00,80,64,CE,
11429600,000003E9,false,Rx,0,8,FE,FF,00,00,00,00,00,00,
11429824,00000431,false,Rx,0,8,CA,FF,0B,02,69,26,F3,4B,
11430059,00000432,false,Rx,0,8,2C,E2,10,A3,4E,FF,02,FF,
11430303,00000510,false,Rx,0,8,40,10,20,00,00,00,00,00,
11430549,0000051A,false,Rx,0,8,00,00,00,00,50,00,00,1A,
11430794,00000540,false,Rx,0,8,00,00,00,00,FD,3C,FF,40,
11432132,00000521,false,Rx,0,6,00,03,00,00,02,5B,00,00,
11437176,0000039D,false,Rx,0,5,26,5D,01,28,00,00,00,00,
11437982,00000112,false,Rx,0,8,FA,1F,76,0B,86,01,65,49,
11445088,00000522,false,Rx,0,6,01,0C,00,04,7A,1A,00,00,
11447989,00000112,false,Rx,0,8,FA,1F,76,0B,86,01,65,49,
11448167,000001A1,false,Rx,0,5,7C,CB,00,00,8A,00,00,00,
11451998,00000521,false,Rx,0,6,00,04,00,00,02,78,00,00,
11457994,00000112,false,Rx,0,8,FA,1F,76,0B,86,01,65,49,
11467988,00000112,false,Rx,0,8,FA,1F,76,0B,86,01,65,49,
11468176,000001A1,false,Rx,0,5,7C,CB,00,00,8A,00,00,00,
11472080,00000521,false,Rx,0,6,00,05,00,00,02,6C,00,00,
11475625,1801D08F,true,Rx,0,8,00,8C,00,5E,03,00,00,47,
11477208,0000039D,false,Rx,0,5,27,5E,01,28,00,00,00,00,
11477995,00000112,false,Rx,0,8,FA,1F,76,0B,86,01,65,49,
11483083,00000523,false,Rx,0,6,02,0D,00,04,7A,45,00,00,
11484111,00000524,false,Rx,0,6,03,0D,FF,FF,FF,E2,00,00,
11487998,00000112,false,Rx,0,8,FA,1F,76,0B,86,01,65,49,
11488186,000001A1,false,Rx,0,5,7C,CB,00,00,8A,00,00,00,
11492133,00000521,false,Rx,0,6,00,06,00,00,02,59,00,00,
11498009,00000112,false,Rx,0,8,FA,1F,76,0B,86,01,65,49,
11505069,00000522,false,Rx,0,6,01,0D,00,04,7A,28,00,00,
11508002,00000112,false,Rx,0,8,FA,1F,76,0B,86,01,65,49,
11508189,000001A1,false,Rx,0,5,7C,CB,00,00,8A,00,00,00,
11510750,00000100,false,Rx,0,8,01,00,00,00,3D,09,3F,12,
11511005,00000101,false,Rx,0,8,00,00,00,00,00,00,00,00,
11511995,00000521,false,Rx,0,6,00,07,00,00,02,6B,00,00,
11517202,0000039D,false,Rx,0,5,28,5F,01,28,00,00,00,00,
11518009,00000112,false,Rx,0,8,FA,1F,76,0B,86,01,65,49,
11528017,00000112,false,Rx,0,8,FA,1F,76,0B,86,01,65,49,
11528259,0000003C,false,Rx,0,8,FF,5F,00,00,00,00,FF,FF,
11528504,0000003F,false,Rx,0,8,00,00,00,C0,00,C0,64,C0,
11528728,0000012F,false,Rx,0,8,F5,28,86,1D,F1,35,30,80,
11528909,000001A1,false,Rx,0,5,7C,CB,00,00,8A,00,00,00,
11529154,000002F1,false,Rx,0,8,36,10,7D,60,09,08,07,A0,
11529398,000003E9,false,Rx,0,8,FE,FF,00,00,00,00,00,00,
11529623,00000431,false,Rx,0,8,CA,FF,0B,02,69,26,F3,4B,
11532071,00000521,false,Rx,0,6,00,08,00,00,02,5F,00,00,
11538022,00000112,false,Rx,0,8,FA,1F,76,0B,86,01,65,49,
11543067,00000523,false,Rx,0,6,02,0E,00,04,7A,20,00,00,
11544084,00000524,false,Rx,0,6,03,0E,00,00,00,2F,00,00,
11548024,00000112,false,Rx,0,8,FA,1F,76,0B,86,01,65,49,
11548213,000001A1,false,Rx,0,5,7C,CB,00,00,8A,00,00,00,
11552097,00000521,false,Rx,0,6,00,09,00,00,02,71,00,00,
11557244,0000039D,false,Rx,0,5,19,50,01,28,00,00,00,00,
11558030,00000112,false,Rx,0,8,FA,1F,76,0B,86,01,65,49,
11564978,00000522,false,Rx,0,6,01,0E,00,04,7A,09,00,00,
11568037,00000112,false,Rx,0,8,FA,1F,75,0B,86,01,65,49,
11568216,000001A1,false,Rx,0,5,7C,CB,00,00,8A,00,00,00,
11571971,00000521,false,Rx,0,6,00,0A,00,00,02,5C,00,00,
11573083,000003B4,false,Rx,0,8,00,FF,30,F0,B8,FF,00,00,
11575634,1801D08F,true,Rx,0,8,00,8C,00,5E,03,00,00,47,
11578037,00000112,false,Rx,0,8,FA,1F,75,0B,86,01,65,49,
11588041,00000112,false,Rx,0,8,FA,1F,75,0B,86,01,65,49,
11588219,000001A1,false,Rx,0,5,7C,CB,00,00,8A,00,00,00,
11592049,00000521,false,Rx,0,6,00,0B,00,00,02,66,00,00,
11593107,00000272,false,Rx,0,8,B9,FE,71,11,FF,FF,FF,FF,
11597164,0000039D,false,Rx,0,5,1A,51,01,28,00,00,00,00,
11598044,00000112,false,Rx,0,8,FA,1F,75,0B,86,01,65,49,
11603052,00000523,false,Rx,0,6,02,0F,00,04,7A,20,00,00,
11604070,00000524,false,Rx,0,6,03,0F,00,00,00,0E,00,00,
11608043,00000112,false,Rx,0,8,FA,1F,75,0B,86,01,65,49,
11608232,000001A1,false,Rx,0,5,7C,CB,00,00,8A,00,00,00,
11610750,00000100,false,Rx,0,8,01,00,00,00,3D,09,39,12,
11611004,00000101,false,Rx,0,8,00,00,00,00,00,00,00,00,
11612099,00000521,false,Rx,0,6,00,0C,00,00,02,62,00,00,
11618050,00000112,false,Rx,0,8,FA,1F,75,0B,86,01,65,49,
11623169,000003C3,false,Rx,0,8,84,08,C1,F1,0C,43,12,0C,
11625038,00000522,false,Rx,0,6,01,0F,00,04,7A,51,00,00,
11627261,0000035D,false,Rx,0,8,00,00,00,00,00,00,00,00,
11628049,00000112,false,Rx,0,8,FA,1F,76,0B,86,01,65,49,
11628304,0000003C,false,Rx,0,8,FF,5F,00,00,00,00,FF,FF,
11628487,000001A1,false,Rx,0,5,7C,CB,00,00,8A,00,00,00,
11628730,000002FA,false,Rx,0,8,FD,FF,05,FF,FF,FF,FF,FF,
11628955,0000012F,false,Rx,0,8,F5,28,86,1D,F1,35,30,80,
11629199,000002F1,false,Rx,0,8,36,10,7D,60,09,08,07,A0,
11629439,0000003F,false,Rx,0,8,00,00,00,00,00,00,64,65,
11629686,000003E9,false,Rx,0,8,FE,FF,00,00,00,00,00,00,
11629920,00000431,false,Rx,0,8,CA,FF,0B,02,69,26,F3,4B,
11630143,00000432,false,Rx,0,8,2C,E2,10,A3,4E,FF,02,FF,
11630400,00000510,false,Rx,0,8,40,10,20,00,00,00,00,00,
11630645,0000051A,false,Rx,0,8,00,00,00,00,50,00,00,1A,
11630889,00000540,false,Rx,0,8,00,00,00,00,FD,3C,FF,40,
11631952,00000521,false,Rx,0,6,00,0D,00,00,02,84,00,00,
11637167,0000039D,false,Rx,0,5,1B,52,01,28,00,00,00,00,
11637408,0000032D,false,Rx,0,8,10,00,00,00,00,FF,FF,FF,
11638073,00000112,false,Rx,0,8,FA,1F,76,0B,86,01,65,49,
11644622,00000351,false,Rx,0,8,20,0D,C8,00,DC,05,D3,0A,
11644852,00000355,false,Rx,0,8,27,00,64,00,86,01,00,00,
11645097,00000356,false,Rx,0,8,A5,72,FA,FF,E1,00,00,00,
11646979,0000035A,false,Rx,0,8,00,00,00,00,00,00,00,00,
11647202,0000035E,false,Rx,0,8,53,49,4D,50,20,42,4D,53,
11648078,00000112,false,Rx,0,8,FA,1F,76,0B,86,01,65,49,
11648260,000001A1,false,Rx,0,5,7C,CB,00,00,8A,00,00,00,
11648958,00000370,false,Rx,0,8,53,49,4D,50,20,45,43,4F,
11650984,00000373,false,Rx,0,8,8E,0D,AA,0D,27,01,28,01,
11651954,00000521,false,Rx,0,6,00,0E,00,00,02,69,00,00,
11652994,00000379,false,Rx,0,8,D2,00,00,00,01,00,00,00,
11655009,00000372,false,Rx,0,8,0E,00,00,00,00,00,00,00,
11658084,00000112,false,Rx,0,8,FA,1F,76,0B,86,01,65,49,
11663041,00000523,false,Rx,0,6,02,00,00,04,7A,10,00,00,
11664058,00000524,false,Rx,0,6,03,00,00,00,00,1E,00,00,
11668083,00000112,false,Rx,0,8,FA,1F,76,0B,86,01,65,49,
11668261,000001A1,false,Rx,0,5,7C,CB,00,00,8A,00,00,00,
11672070,00000521,false,Rx,0,6,00,0F,00,00,02,62,00,00,
11675614,1801D08F,true,Rx,0,8,00,8C,00,5E,03,00,00,47,
11677199,0000039D,false,Rx,0,5,1C,53,01,28,00,00,00,00,
11678090,00000112,false,Rx,0,8,FA,1F,76,0B,86,01,65,49,
11685026,00000522,false,Rx,0,6,01,00,00,04,7A,36,00,00,
11688086,00000112,false,Rx,0,8,FA,1F,76,0B,86,01,65,49,
11688274,000001A1,false,Rx,0,5,7C,CB,00,00,8A,00,00,00,
11691946,00000521,false,Rx,0,6,00,00,00,00,02,64,00,00,
11698097,00000112,false,Rx,0,8,FA,1F,76,0B,86,01,65,49,
11708092,00000112,false,Rx,0,8,FA,1F,76,0B,86,01,65,49,
11708280,000001A1,false,Rx,0,5,7C,CB,00,00,8A,00,00,00,
11710746,00000100,false,Rx,0,8,01,00,00,00,3D,09,3F,12,
11711003,00000101,false,Rx,0,8,00,00,00,00,00,00,00,00,
11712024,00000521,false,Rx,0,6,00,01,00,00,02,6C,00,00,
11717220,0000039D,false,Rx,0,5,1D,54,01,28,00,00,00,00,
11718100,00000112,false,Rx,0,8,FA,1F,76,0B,86,01,65,49,
11723023,00000523,false,Rx,0,6,02,01,00,04,7A,31,00,00,
11724029,00000524,false,Rx,0,6,03,01,00,00,00,0E,00,00,
11728107,00000112,false,Rx,0,8,FA,1F,76,0B,86,01,65,49,
11728347,0000003C,false,Rx,0,8,FF,5F,00,00,00,00,FF,FF,
11728593,0000003F,false,Rx,0,8,00,00,00,40,00,40,64,6B,
11728817,0000012F,false,Rx,0,8,F5,28,86,1D,F1,35,30,80,
11728999,000001A1,false,Rx,0,5,7C,CB,00,00,8A,00,00,00,
11729243,000002F1,false,Rx,0,8,36,10,7D,60,09,08,07,A0,
11729489,000003E9,false,Rx,0,8,FE,FF,00,00,00,00,00,00,
11729713,00000431,false,Rx,0,8,CA,FF,0B,02,69,26,F3,4B,
11732066,00000521,false,Rx,0,6,00,02,00,00,02,56,00,00,
11738113,00000112,false,Rx,0,8,FB,1F,76,0B,86,01,65,49,
11744931,00000522,false,Rx,0,6,01,01,00,04,7A,18,00,00,
11748116,00000112,false,Rx,0,8,FB,1F,76,0B,86,01,65,49,
11748304,000001A1,false,Rx,0,5,7C,CB,00,00,8A,00,00,00,
11751925,00000521,false,Rx,0,6,00,03,00,00,02,71,00,00,
11757200,0000039D,false,Rx,0,5,1E,55,01,28,00,00,00,00,
11758122,00000112,false,Rx,0,8,FA,1F,76,0B,86,01,65,49,
11768121,00000112,false,Rx,0,8,FA,1F,76,0B,86,01,65,49,
11768309,000001A1,false,Rx,0,5,7C,CB,00,00,8A,00,00,00,
11772003,00000521,false,Rx,0,6,00,04,00,00,02,58,00,00,
11773419,000003B4,false,Rx,0,8,00,FF,30,F0,B8,FF,00,00,
11775645,1801D08F,true,Rx,0,8,00,8C,00,5E,03,00,00,47,
11778132,00000112,false,Rx,0,8,FA,1F,76,0B,86,01,65,49,
11782998,00000523,false,Rx,0,6,02,02,00,04,7A,29,00,00,
11784016,00000524,false,Rx,0,6,03,02,00,00,00,1C,00,00,
11788125,00000112,false,Rx,0,8,FA,1F,76,0B,86,01,65,49,
11788313,000001A1,false,Rx,0,5,7C,CB,00,00,8A,00,00,00,
11792048,00000521,false,Rx,0,6,00,05,00,00,02,6E,00,00,
11793664,00000272,false,Rx,0,8,B8,F0,71,11,FF,FF,FF,FF,
11797164,0000039D,false,Rx,0,5,1F,56,01,28,00,00,00,00,
11798128,00000112,false,Rx,0,8,FA,1F,76,0B,86,01,65,49,
11805002,00000522,false,Rx,0,6,01,02,00,04,7A,1C,00,00,
11808135,00000112,false,Rx,0,8,FA,1F,76,0B,86,01,65,49,
11808323,000001A1,false,Rx,0,5,7C,CB,00,00,8A,00,00,00,
11810747,00000100,false,Rx,0,8,01,00,00,00,3D,09,3F,12,
11810992,00000101,false,Rx,0,8,00,00,00,00,00,00,00,00,
11811993,00000521,false,Rx,0,6,00,06,00,00,02,6C,00,00,
11818137,00000112,false,Rx,0,8,FA,1F,76,0B,86,01,65,49,
11828144,00000112,false,Rx,0,8,FA,1F,76,0B,86,01,65,49,
11828395,0000003C,false,Rx,0,8,FF,5F,00,00,00,00,FF,FF,
11828579,000001A1,false,Rx,0,5,7C,CB,00,00,8A,00,00,00,
11828823,000002FA,false,Rx,0,8,FD,FF,05,FF,FF,FF,FF,FF,
11829046,0000012F,false,Rx,0,8,F5,28,86,1D,F1,35,30,80,
11829281,000002F1,false,Rx,0,8,36,10,7D,60,09,08,07,A0,
11829527,0000003F,false,Rx,0,8,00,00,00,80,00,80,64,CE,
11829781,000003E9,false,Rx,0,8,FE,FF,00,00,00,00,00,00,
11830005,00000431,false,Rx,0,8,CA,FF,0B,02,69,26,F3,4B,
11830230,00000432,false,Rx,0,8,2C,E2,10,A3,4E,FF,02,FF,
11830486,00000510,false,Rx,0,8,40,10,20,00,00,00,00,00,
11830730,0000051A,false,Rx,0,8,00,00,00,00,50,00,00,1A,
11830976,00000540,false,Rx,0,8,00,00,00,00,FD,3C,FF,40,
11831987,00000521,false,Rx,0,6,00,07,00,00,02,83,00,00,
11837196,0000039D,false,Rx,0,5,20,57,01,28,00,00,00,00,
11838160,00000112,false,Rx,0,8,FA,1F,76,0B,86,01,65,49,
11842987,00000523,false,Rx,0,6,02,03,00,04,7A,39,00,00,
11844005,00000524,false,Rx,0,6,03,03,00,00,00,12,00,00,
11848167,00000112,false,Rx,0,8,FA,1F,76,0B,86,01,65,49,
11848345,000001A1,false,Rx,0,5,7C,CB,00,00,8A,00,00,00,
11852029,00000521,false,Rx,0,6,00,08,00,00,02,73,00,00,
11858169,00000112,false,Rx,0,8,FA,1F,76,0B,86,01,65,49,
11864976,00000522,false,Rx,0,6,01,03,00,04,7A,15,00,00,
11868173,00000112,false,Rx,0,8,FA,1F,75,0B,86,01,65,49,
11868350,000001A1,false,Rx,0,5,7C,CB,00,00,8A,00,00,00,
11871898,00000521,false,Rx,0,6,00,09,00,00,02,7F,00,00,
11875621,1801D08F,true,Rx,0,8,00,8C,00,5E,03,00,00,47,
11877185,0000039D,false,Rx,0,5,21,58,01,28,00,00,00,00,
11878180,00000112,false,Rx,0,8,FA,1F,75,0B,86,01,65,49,
11888178,00000112,false,Rx,0,8,FA,1F,75,0B,86,01,65,49,
11888355,000001A1,false,Rx,0,5,7C,CB,00,00,8A,00,00,00,
11891967,00000521,false,Rx,0,6,00,0A,00,00,02,51,00,00,
11898181,00000112,false,Rx,0,8,FB,1F,75,0B,86,01,65,49,
11902973,00000523,false,Rx,0,6,02,04,00,04,7A,14,00,00,
11903981,00000524,false,Rx,0,6,03,04,00,00,00,1A,00,00,
11908184,00000112,false,Rx,0,8,FB,1F,75,0B,86,01,65,49,
11908362,000001A1,false,Rx,0,5,7C,CB,00,00,8A,00,00,00,
11910734,00000100,false,Rx,0,8,01,00,00,00,3D,09,39,12,
11910989,00000101,false,Rx,0,8,00,00,00,00,00,00,00,00,
11912010,00000521,false,Rx,0,6,00,0B,00,00,02,79,00,00,
11917194,0000039D,false,Rx,0,5,22,59,01,28,00,00,00,00,
11918190,00000112,false,Rx,0,8,FA,1F,75,0B,86,01,65,49,
11924960,00000522,false,Rx,0,6,01,04,00,04,7A,30,00,00,
11928188,00000112,false,Rx,0,8,FA,1F,76,0B,86,01,65,49,
11928440,0000003C,false,Rx,0,8,FF,5F,00,00,00,00,FF,FF,
11928686,0000003F,false,Rx,0,8,00,00,00,C0,00,C0,64,C0,
11928909,0000012F,false,Rx,0,8,F5,28,86,1D,F1,35,30,80,
11929091,000001A1,false,Rx,0,5,7C,CB,00,00,8A,00,00,00,
11929325,000002F1,false,Rx,0,8,36,10,7D,60,09,08,07,A0,
11929581,000003E9,false,Rx,0,8,FE,FF,00,00,00,00,00,00,
11929805,00000431,false,Rx,0,8,CA,FF,0B,02,69,26,F3,4B,
11931874,00000521,false,Rx,0,6,00,0C,00,00,02,80,00,00,
11938202,00000112,false,Rx,0,8,FA,1F,76,0B,86,01,65,49,
11948208,00000112,false,Rx,0,8,FA,1F,76,0B,86,01,65,49,
11948386,000001A1,false,Rx,0,5,7C,CB,00,00,8A,00,00,00,
11951954,00000521,false,Rx,0,6,00,0D,00,00,02,59,00,00,
11957175,0000039D,false,Rx,0,5,23,5A,01,28,00,00,00,00,
11957425,0000035D,false,Rx,0,8,01,00,00,00,00,00,00,00,
11958206,00000112,false,Rx,0,8,FA,1F,76,0B,86,01,65,49,
11962963,00000523,false,Rx,0,6,02,05,00,04,7A,2B,00,00,
11963979,00000524,false,Rx,0,6,03,05,00,00,00,12,00,00,
11968215,00000112,false,Rx,0,8,FA,1F,76,0B,86,01,65,49,
11968394,000001A1,false,Rx,0,5,7C,CB,00,00,8A,00,00,00,
11971993,00000521,false,Rx,0,6,00,0E,00,00,02,80,00,00,
11973967,000003B4,false,Rx,0,8,00,FF,30,F0,B8,FF,00,00,
11975615,1801D08F,true,Rx,0,8,00,8C,00,5E,03,00,00,47,
11978216,00000112,false,Rx,0,8,FA,1F,76,0B,86,01,65,49,
11984865,00000522,false,Rx,0,6,01,05,00,04,7A,22,00,00,
11988219,00000112,false,Rx,0,8,FA,1F,76,0B,86,01,65,49,
11988397,000001A1,false,Rx,0,5,7C,CB,00,00,8A,00,00,00,
11991943,00000521,false,Rx,0,6,00,0F,00,00,02,7A,00,00,
11993790,00000272,false,Rx,0,8,E5,F1,71,11,FF,FF,FF,FF,
11997142,0000039D,false,Rx,0,5,24,5B,01,28,00,00,00,00,
11998221,00000112,false,Rx,0,8,FA,1F,76,0B,86,01,65,49,
12008224,00000112,false,Rx,0,8,FA,1F,76,0B,86,01,65,49,
12008412,000001A1,false,Rx,0,5,7C,CB,00,00,8A,00,00,00,
12010731,00000100,false,Rx,0,8,01,00,00,00,3D,09,3F,12,
12010986,00000101,false,Rx,0,8,00,00,00,00,00,00,00,00,
12011944,00000521,false,Rx,0,6,00,00,00,00,02,73,00,00,
12018226,00000112,false,Rx,0,8,FA,1F,76,0B,86,01,65,49,
12022942,00000523,false,Rx,0,6,02,06,00,04,7A,48,00,00,
12023960,00000524,false,Rx,0,6,03,06,FF,FF,FF,F6,00,00,
12028228,00000112,false,Rx,0,8,FA,1F,76,0B,86,01,65,49,
12028480,0000003C,false,Rx,0,8,FF,5F,00,00,00,00,FF,FF,
12028662,000001A1,false,Rx,0,5,7C,CB,00,00,8A,00,00,00,
12028916,000002FA,false,Rx,0,8,FD,FF,05,FF,FF,FF,FF,FF,
12029141,0000012F,false,Rx,0,8,F5,28,86,1D,F1,35,30,80,
12029375,000002F1,false,Rx,0,8,36,10,7D,60,09,08,07,A0,
12029620,0000003F,false,Rx,0,8,00,00,00,00,00,00,64,65,
12029866,000003E9,false,Rx,0,8,FE,FF,00,00,00,00,00,00,
12030100,00000431,false,Rx,0,8,CA,FF,0B,02,69,26,F3,4B,
12030323,00000432,false,Rx,0,8,2C,E2,10,A3,4E,FF,02,FF,
12030580,00000510,false,Rx,0,8,40,10,20,00,00,00,00,00,
12030825,0000051A,false,Rx,0,8,00,00,00,00,50,00,00,1A,
12031069,00000540,false,Rx,0,8,00,00,00,00,FD,3C,FF,40,
12031986,00000521,false,Rx,0,6,00,01,00,00,02,78,00,00,
12037184,0000039D,false,Rx,0,5,25,5C,01,28,00,00,00,00,
12038254,00000112,false,Rx,0,8,FA,1F,76,0B,86,01,65,49,
12044856,00000522,false,Rx,0,6,01,06,00,04,7A,3F,00,00,
12048253,00000112,false,Rx,0,8,FA,1F,76,0B,86,01,65,49,
12048441,000001A1,false,Rx,0,5,7C,CB,00,00,8A,00,00,00,
12051840,00000521,false,Rx,0,6,00,02,00,00,02,53,00,00,
12058264,00000112,false,Rx,0,8,FB,1F,76,0B,86,01,65,49,
12068260,00000112,false,Rx,0,8,FB,1F,76,0B,86,01,65,49,
12068438,000001A1,false,Rx,0,5,7C,CB,00,00,8A,00,00,00,
12071932,00000521,false,Rx,0,6,00,03,00,00,02,58,00,00,
12075623,1801D08F,true,Rx,0,8,00,8C,00,5E,03,00,00,47,
12077196,0000039D,false,Rx,0,5,26,5D,01,28,00,00,00,00,
12078266,00000112,false,Rx,0,8,FA,1F,76,0B,86,01,65,49,
12082923,00000523,false,Rx,0,6,02,07,00,04,7A,43,00,00,
12083940,00000524,false,Rx,0,6,03,07,00,00,00,1E,00,00,
12088271,00000112,false,Rx,0,8,FA,1F,76,0B,86,01,65,49,
12088448,000001A1,false,Rx,0,5,7C,CB,00,00,8A,00,00,00,
12091965,00000521,false,Rx,0,6,00,04,00,00,02,60,00,00,
12098272,00000112,false,Rx,0,8,FA,1F,76,0B,86,01,65,49,
12104909,00000522,false,Rx,0,6,01,07,00,04,7A,45,00,00,
12108274,00000112,false,Rx,0,8,FA,1F,76,0B,86,01,65,49,
12108452,000001A1,false,Rx,0,5,7C,CB,00,00,8A,00,00,00,
12110729,00000100,false,Rx,0,8,01,00,00,00,3D,09,39,12,
12110973,00000101,false,Rx,0,8,00,00,00,00,00,00,00,00,
12111837,00000521,false,Rx,0,6,00,05,00,00,02,66,00,00,
12117146,0000039D,false,Rx,0,5,27,5E,01,28,00,00,00,00,
12118279,00000112,false,Rx,0,8,FA,1F,76,0B,86,01,65,49,
12128278,00000112,false,Rx,0,8,FA,1F,76,0B,86,01,65,49,
12128530,0000003C,false,Rx,0,8,FF,5F,00,00,00,00,FF,FF,
12128774,0000003F,false,Rx,0,8,00,00,00,40,00,40,64,6B,
12128999,0000012F,false,Rx,0,8,F5,28,86,1D,F1,35,30,80,
12129181,000001A1,false,Rx,0,5,7C,CB,00,00,8A,00,00,00,
12129414,000002F1,false,Rx,0,8,36,10,7D,60,09,08,07,A0,
12129671,000003E9,false,Rx,0,8,FE,FF,00,00,00,00,00,00,
12129895,00000431,false,Rx,0,8,CA,FF,0B,02,69,26,F3,4B,
12131913,00000521,false,Rx,0,6,00,06,00,00,02,7F,00,00,
12138295,00000112,false,Rx,0,8,FA,1F,76,0B,86,01,65,49,
12142917,00000523,false,Rx,0,6,02,08,00,04,7A,56,00,00,
12143933,00000524,false,Rx,0,6,03,08,FF,FF,FF,E4,00,00,
12148297,00000112,false,Rx,0,8,FA,1F,76,0B,86,01,65,49,
12148475,000001A1,false,Rx,0,5,7C,CB,00,00,8A,00,00,00,
12151950,00000521,false,Rx,0,6,00,07,00,00,02,5E,00,00,
12157180,0000039D,false,Rx,0,5,28,5F,01,28,00,00,00,00,
12158302,00000112,false,Rx,0,8,FA,1F,76,0B,86,01,65,49,
12164893,00000522,false,Rx,0,6,01,08,00,04,7A,3A,00,00,
12168300,00000112,false,Rx,0,8,FA,1F,76,0B,86,01,65,49,
12168489,000001A1,false,Rx,0,5,7C,CB,00,00,8A,00,00,00,
12171815,00000521,false,Rx,0,6,00,08,00,00,02,5B,00,00,
12173996,00000337,false,Rx,0,2,FF,FF,00,00,00,00,00,00,
12174272,000003B4,false,Rx,0,8,00,FF,30,F0,B8,FF,00,00,
12175595,1801D08F,true,Rx,0,8,00,8C,00,5E,03,00,00,47,
12178302,00000112,false,Rx,0,8,FA,1F,76,0B,86,01,65,49,
12187326,000005BD,false,Rx,0,8,B4,80,00,00,00,00,00,00,
12188312,00000112,false,Rx,0,8,FA,1F,76,0B,86,01,65,49,
12188495,000001A1,false,Rx,0,5,7C,CB,00,00,8A,00,00,00,
12191889,00000521,false,Rx,0,6,00,09,00,00,02,55,00,00,
12194135,00000272,false,Rx,0,8,02,F2,71,11,FF,FF,FF,FF,
12197185,0000039D,false,Rx,0,5,19,50,01,28,00,00,00,00,
12198317,00000112,false,Rx,0,8,FB,1F,76,0B,86,01,65,49,
12202903,00000523,false,Rx,0,6,02,09,00,04,7A,35,00,00,
12203909,00000524,false,Rx,0,6,03,09,00,00,00,1E,00,00,
12208315,00000112,false,Rx,0,8,FB,1F,76,0B,86,01,65,49,
12208493,000001A1,false,Rx,0,5,7C,CB,00,00,8A,00,00,00,
12210697,00000100,false,Rx,0,8,01,00,00,00,3D,09,3F,12,
12210952,00000101,false,Rx,0,8,00,00,00,00,00,00,00,00,
12211934,00000521,false,Rx,0,6,00,0A,00,00,02,81,00,00,
12218318,00000112,false,Rx,0,8,FA,1F,76,0B,86,01,65,49,
12224873,00000522,false,Rx,0,6,01,09,00,04,7A,49,00,00,
12228321,00000112,false,Rx,0,8,FA,1F,76,0B,86,01,65,49,
12228500,000001A1,false,Rx,0,5,7C,CB,00,00,8A,00,00,00,
12228756,000002FA,false,Rx,0,8,FD,FF,05,FF,FF,FF,FF,FF,
12228958,00000328,false,Rx,0,6,0B,00,00,00,87,1E,00,00,
12229202,0000003C,false,Rx,0,8,FF,5F,00,00,00,00,FF,FF,
12229342,000003E8,false,Rx,0,2,F1,FF,00,00,00,00,00,00,
12229587,000003E9,false,Rx,0,8,FE,FF,00,00,00,00,00,00,
12229811,0000012F,false,Rx,0,8,F5,28,86,1D,F1,35,30,80,
12230055,000002F1,false,Rx,0,8,36,10,7D,60,09,08,07,A0,
12230301,0000003F,false,Rx,0,8,00,00,00,80,00,80,64,CE,
12230537,000003F9,false,Rx,0,8,C0,F9,80,E0,43,3C,F3,FF,
12230761,00000431,false,Rx,0,8,CA,FF,0B,02,69,26,F3,4B,
12230985,00000432,false,Rx,0,8,2C,E2,10,A3,4E,FF,02,FF,
12231240,00000510,false,Rx,0,8,40,10,20,00,00,00,00,00,
12231486,0000051A,false,Rx,0,8,00,00,00,00,50,00,00,1A,
12231731,00000540,false,Rx,0,8,00,00,00,00,FD,3C,FF,40,
12231934,00000521,false,Rx,0,6,00,0B,00,00,02,71,00,00,
12237167,0000039D,false,Rx,0,5,1A,51,01,28,00,00,00,00,
12238352,00000112,false,Rx,0,8,FA,1F,76,0B,86,01,65,49,
12248352,00000112,false,Rx,0,8,FA,1F,76,0B,86,01,65,49,
12248531,000001A1,false,Rx,0,5,7C,CB,00,00,8A,00,00,00,
12251878,00000521,false,Rx,0,6,00,0C,00,00,02,61,00,00,
12258354,00000112,false,Rx,0,8,FA,1F,76,0B,86,01,65,49,
12262862,00000523,false,Rx,0,6,02,0A,00,04,7A,54,00,00,
12263900,00000524,false,Rx,0,6,03,0A,FF,FF,FF,F6,00,00,
12268358,00000112,false,Rx,0,8,FA,1F,76,0B,86,01,65,49,
12268536,000001A1,false,Rx,0,5,7C,CB,00,00,8A,00,00,00,
12271905,00000521,false,Rx,0,6,00,0D,00,00,02,55,00,00,
12275605,1801D08F,true,Rx,0,8,00,8C,00,5E,03,00,00,47,
12276875,00000351,false,Rx,0,8,20,0D,C8,00,DC,05,D3,0A,
12277110,00000355,false,Rx,0,8,27,00,64,00,86,01,00,00,
12277354,00000356,false,Rx,0,8,A6,72,FA,FF,E1,00,00,00,
12277537,0000039D,false,Rx,0,5,1B,52,01,28,00,00,00,00,
12278360,00000112,false,Rx,0,8,FB,1F,76,0B,86,01,65,49,
12279234,0000035A,false,Rx,0,8,00,00,00,00,00,00,00,00,
12279471,0000035E,false,Rx,0,8,53,49,4D,50,20,42,4D,53,
12281216,00000370,false,Rx,0,8,53,49,4D,50,20,45,43,4F,
12283242,00000373,false,Rx,0,8,8F,0D,AA,0D,27,01,28,01,
12284869,00000522,false,Rx,0,6,01,0A,00,04,7A,43,00,00,
12285259,00000379,false,Rx,0,8,D2,00,00,00,01,00,00,00,
12287256,0000035D,false,Rx,0,8,02,00,88,08,00,00,20,F0,
12287501,00000372,false,Rx,0,8,0E,00,00,00,00,00,00,00,
12288362,00000112,false,Rx,0,8,FB,1F,76,0B,86,01,65,49,
12288546,000001A1,false,Rx,0,5,7C,CB,00,00,8A,00,00,00,
12291790,00000521,false,Rx,0,6,00,0E,00,00,02,60,00,00,
12298362,00000112,false,Rx,0,8,FA,1F,76,0B,86,01,65,49,
12308368,00000112,false,Rx,0,8,FA,1F,76,0B,86,01,65,49,
12308548,000001A1,false,Rx,0,5,7C,CB,00,00,8A,00,00,00,
12310686,00000100,false,Rx,0,8,01,00,00,00,3D,09,3F,12,
12310942,00000101,false,Rx,0,8,00,00,00,00,00,00,00,00,
12311859,00000521,false,Rx,0,6,00,0F,00,00,02,71,00,00,
12317125,0000039D,false,Rx,0,5,1C,53,01,28,00,00,00,00,
12318372,00000112,false,Rx,0,8,FA,1F,76,0B,86,01,65,49,
12322865,00000523,false,Rx,0,6,02,0B,00,04,7A,41,00,00,
12323872,00000524,false,Rx,0,6,03,0B,00,00,00,1C,00,00,
12328370,00000112,false,Rx,0,8,FA,1F,76,0B,86,01,65,49,
12328623,0000003C,false,Rx,0,8,FF,5F,00,00,00,00,FF,FF,
12328868,0000003F,false,Rx,0,8,00,00,00,C0,00,C0,64,C0,
12329091,0000012F,false,Rx,0,8,F5,28,86,1D,F1,35,30,80,
12329274,000001A1,false,Rx,0,5,7C,CB,00,00,8A,00,00,00,
12329508,000002F1,false,Rx,0,8,36,10,7D,60,09,08,07,A0,
12329763,000003E9,false,Rx,0,8,FE,FF,00,00,00,00,00,00,
12329986,00000431,false,Rx,0,8,CA,FF,0B,02,69,26,F3,4B,
12331899,00000521,false,Rx,0,6,00,00,00,00,02,87,00,00,
12338386,00000112,false,Rx,0,8,FA,1F,76,0B,86,01,65,49,
12344847,00000522,false,Rx,0,6,01,0B,00,04,7A,20,00,00,
12348390,00000112,false,Rx,0,8,FA,1F,76,0B,86,01,65,49,
12348572,000001A1,false,Rx,0,5,7C,CB,00,00,8A,00,00,00,
12351771,00000521,false,Rx,0,6,00,01,00,00,02,5D,00,00,
12357159,0000039D,false,Rx,0,5,1D,54,01,28,00,00,00,00,
12358395,00000112,false,Rx,0,8,FA,1F,76,0B,86,01,65,49,
12368395,00000112,false,Rx,0,8,FA,1F,76,0B,86,01,65,49,
12368575,000001A1,false,Rx,0,5,7C,CB,00,00,8A,00,00,00,
12371847,00000521,false,Rx,0,6,00,02,00,00,02,6C,00,00,
12374448,000003B4,false,Rx,0,8,00,FF,30,F0,B8,FF,00,00,
12375614,1801D08F,true,Rx,0,8,00,8C,00,5E,03,00,00,47,
12378395,00000112,false,Rx,0,8,FA,1F,76,0B,86,01,65,49,
12382848,00000523,false,Rx,0,6,02,0C,00,04,7A,43,00,00,
12383855,00000524,false,Rx,0,6,03,0C,00,00,00,02,00,00,
12388408,00000112,false,Rx,0,8,FA,1F,76,0B,86,01,65,49,
12388586,000001A1,false,Rx,0,5,7C,CB,00,00,8A,00,00,00,
12391881,00000521,false,Rx,0,6,00,03,00,00,02,86,00,00,
12394673,00000272,false,Rx,0,8,5F,F3,71,11,FF,FF,FF,FF,
12397173,0000039D,false,Rx,0,5,1E,55,01,28,00,00,00,00,
12398401,00000112,false,Rx,0,8,FA,1F,76,0B,86,01,65,49,
12404833,00000522,false,Rx,0,6,01,0C,00,04,7A,20,00,00,
12408409,00000112,false,Rx,0,8,FA,1F,76,0B,86,01,65,49,
12408588,000001A1,false,Rx,0,5,7C,CB,00,00,8A,00,00,00,
12410686,00000100,false,Rx,0,8,01,00,00,00,3D,09,3F,12,
12410941,00000101,false,Rx,0,8,00,00,00,00,00,00,00,00,
12411753,00000521,false,Rx,0,6,00,04,00,00,02,67,00,00,
12418411,00000112,false,Rx,0,8,FA,1F,76,0B,86,01,65,49,
12428416,00000112,false,Rx,0,8,FA,1F,76,0B,86,01,65,49,
12428668,0000003C,false,Rx,0,8,FF,5F,00,00,00,00,FF,FF,
12428850,000001A1,false,Rx,0,5,7C,CB,00,00,8A,00,00,00,
12429095,000002FA,false,Rx,0,8,FD,FF,05,FF,FF,FF,FF,FF,
12429318,0000012F,false,Rx,0,8,F5,28,86,1D,F1,35,30,80,
12429553,000002F1,false,Rx,0,8,36,10,7D,60,09,08,07,A0,
12429808,0000003F,false,Rx,0,8,00,00,00,00,00,00,64,65,
12430054,000003E9,false,Rx,0,8,FE,FF,00,00,00,00,00,00,
12430277,00000431,false,Rx,0,8,CA,FF,0B,02,69,26,F3,4B,
12430512,00000432,false,Rx,0,8,2C,E2,10,A3,4E,FF,02,FF,
12430758,00000510,false,Rx,0,8,40,10,20,00,00,00,00,00,
12431002,0000051A,false,Rx,0,8,00,00,00,00,50,00,00,1A,
12431246,00000540,false,Rx,0,8,00,00,00,00,FD,3C,FF,40,
12431828,00000521,false,Rx,0,6,00,05,00,00,02,59,00,00,
12437193,0000039D,false,Rx,0,5,1F,56,01,28,00,00,00,00,
12438441,00000112,false,Rx,0,8,FA,1F,76,0B,86,01,65,49,
12442827,00000523,false,Rx,0,6,02,0D,00,04,7A,3F,00,00,
12443845,00000524,false,Rx,0,6,03,0D,FF,FF,FF,EA,00,00,
12448439,00000112,false,Rx,0,8,FA,1F,76,0B,86,01,65,49,
12448618,000001A1,false,Rx,0,5,7C,CB,00,00,8A,00,00,00,
12451870,00000521,false,Rx,0,6,00,06,00,00,02,6A,00,00,
12458442,00000112,false,Rx,0,8,FA,1F,76,0B,86,01,65,49,
12464819,00000522,false,Rx,0,6,01,0D,00,04,7A,03,00,00,
12468448,00000112,false,Rx,0,8,FA,1F,75,0B,86,01,65,49,
12468627,000001A1,false,Rx,0,5,7C,CB,00,00,8A,00,00,00,
12471732,00000521,false,Rx,0,6,00,07,00,00,02,5B,00,00,
12475589,1801D08F,true,Rx,0,8,00,8C,00,5E,03,00,00,47,
12477133,0000039D,false,Rx,0,5,20,57,01,28,00,00,00,00,
12478443,00000112,false,Rx,0,8,FA,1F,75,0B,86,01,65,49,
12488453,00000112,false,Rx,0,8,FA,1F,75,0B,86,01,65,49,
12488632,000001A1,false,Rx,0,5,7C,CB,00,00,8A,00,00,00,
12491821,00000521,false,Rx,0,6,00,08,00,00,02,5B,00,00,
12498455,00000112,false,Rx,0,8,FA,1F,75,0B,86,01,65,49,
12502814,00000523,false,Rx,0,6,02,0E,00,04,7A,77,00,00,
12503820,00000524,false,Rx,0,6,03,0E,FF,FF,FF,FA,00,00,
12508455,00000112,false,Rx,0,8,FA,1F,75,0B,86,01,65,49,
12508644,000001A1,false,Rx,0,5,7C,CB,00,00,8A,00,00,00,
12510701,00000100,false,Rx,0,8,01,00,00,00,3D,09,3F,12,
12510945,00000101,false,Rx,0,8,00,00,00,00,00,00,00,00,
12511851,00000521,false,Rx,0,6,00,09,00,00,02,64,00,00,
12517128,0000039D,false,Rx,0,5,21,58,01,28,00,00,00,00,
12518459,00000112,false,Rx,0,8,FA,1F,75,0B,86,01,65,49,
12524725,00000522,false,Rx,0,6,01,0E,00,04,7A,0B,00,00,
12528459,00000112,false,Rx,0,8,FA,1F,75,0B,86,01,65,49,
12528711,0000003C,false,Rx,0,8,FF,5F,00,00,00,00,FF,FF,
12528956,0000003F,false,Rx,0,8,00,00,00,40,00,40,64,6B,
12529180,0000012F,false,Rx,0,8,F5,28,86,1D,F1,35,30,80,
12529361,000001A1,false,Rx,0,5,7C,CB,00,00,8A,00,00,00,
12529606,000002F1,false,Rx,0,8,36,10,7D,60,09,08,07,A0,
12529852,000003E9,false,Rx,0,8,FE,FF,00,00,00,00,00,00,
12530075,00000431,false,Rx,0,8,CA,FF,0B,02,69,26,F3,4B,
12531798,00000521,false,Rx,0,6,00,0A,00,00,02,62,00,00,
12538474,00000112,false,Rx,0,8,FA,1F,75,0B,86,01,65,49,
12548480,00000112,false,Rx,0,8,FA,1F,75,0B,86,01,65,49,
12548658,000001A1,false,Rx,0,5,7C,CB,00,00,8A,00,00,00,
12551805,00000521,false,Rx,0,6,00,0B,00,00,02,56,00,00,
12557194,0000039D,false,Rx,0,5,22,59,01,28,00,00,00,00,
12558485,00000112,false,Rx,0,8,FB,1F,75,0B,86,01,65,49,
12562797,00000523,false,Rx,0,6,02,0F,00,04,7A,5C,00,00,
12563814,00000524,false,Rx,0,6,03,0F,00,00,00,0A,00,00,
12568483,00000112,false,Rx,0,8,FB,1F,75,0B,86,01,65,49,
12568671,000001A1,false,Rx,0,5,7C,CB,00,00,8A,00,00,00,
12571839,00000521,false,Rx,0,6,00,0C,00,00,02,82,00,00,
12574989,000003B4,false,Rx,0,8,00,FF,30,F0,B8,FF,00,00,
12575619,1801D08F,true,Rx,0,8,00,8C,00,5E,03,00,00,47,
12578494,00000112,false,Rx,0,8,FA,1F,75,0B,86,01,65,49,
12584791,000003C3,false,Rx,0,8,85,10,48,82,24,48,82,20,
12585001,00000522,false,Rx,0,6,01,0F,00,04,79,FF,00,00,
12588496,00000112,false,Rx,0,8,FA,1F,75,0B,86,01,65,49,
12588677,000001A1,false,Rx,0,5,7C,CB,00,00,8A,00,00,00,
12591707,00000521,false,Rx,0,6,00,0D,00,00,02,65,00,00,
12594819,00000272,false,Rx,0,8,D1,F4,71,11,FF,FF,FF,FF,
12597149,0000039D,false,Rx,0,5,23,5A,01,28,00,00,00,00,
12598492,00000112,false,Rx,0,8,FA,1F,75,0B,86,01,65,49,
12608494,00000112,false,Rx,0,8,FA,1F,75,0B,86,01,65,49,
12608682,000001A1,false,Rx,0,5,7C,CB,00,00,8A,00,00,00,
12610697,00000100,false,Rx,0,8,01,00,00,00,3D,09,39,12,
12610952,00000101,false,Rx,0,8,00,00,00,00,00,00,00,00,
12611702,00000521,false,Rx,0,6,00,0E,00,00,02,6A,00,00,
12617252,0000035D,false,Rx,0,8,00,00,00,00,00,00,00,00,
12618500,00000112,false,Rx,0,8,FA,1F,75,0B,86,01,65,49,
12622780,00000523,false,Rx,0,6,02,00,00,04,7A,06,00,00,
12623796,00000524,false,Rx,0,6,03,00,FF,FF,FF,F8,00,00,
12628507,00000112,false,Rx,0,8,FA,1F,75,0B,86,01,65,49,
12628759,0000003C,false,Rx,0,8,FF,5F,00,00,00,00,FF,FF,
12628930,000001A1,false,Rx,0,5,7C,CB,00,00,8A,00,00,00,
12629184,000002FA,false,Rx,0,8,FD,FF,05,FF,FF,FF,FF,FF,
12629408,0000012F,false,Rx,0,8,F5,28,86,1D,F1,35,30,80,
12629644,000002F1,false,Rx,0,8,36,10,7D,60,09,08,07,A0,
12629888,0000003F,false,Rx,0,8,00,00,00,80,00,80,64,CE,
12630143,000003E9,false,Rx,0,8,FE,FF,00,00,00,00,00,00,
12630368,00000431,false,Rx,0,8,CA,FF,0B,02,69,26,F3,4B,
12630592,00000432,false,Rx,0,8,2C,E2,10,A3,4E,FF,02,FF,
12630847,00000510,false,Rx,0,8,40,10,20,00,00,00,00,00,
12631093,0000051A,false,Rx,0,8,00,00,00,00,50,00,00,1A,
12631338,00000540,false,Rx,0,8,00,00,00,00,FD,3C,FF,40,
12631825,00000521,false,Rx,0,6,00,0F,00,00,02,61,00,00,
12637167,0000039D,false,Rx,0,5,24,5B,01,28,00,00,00,00,
12638520,00000112,false,Rx,0,8,FA,1F,75,0B,86,01,65,49,
12644774,00000522,false,Rx,0,6,01,00,00,04,7A,1E,00,00,
12648530,00000112,false,Rx,0,8,FA,1F,76,0B,86,01,65,49,
12648707,000001A1,false,Rx,0,5,7C,CB,00,00,8A,00,00,00,
12651771,00000521,false,Rx,0,6,00,00,00,00,02,5B,00,00,
12658531,00000112,false,Rx,0,8,FA,1F,76,0B,86,01,65,49,
12668535,00000112,false,Rx,0,8,FA,1F,76,0B,86,01,65,49,
12668714,000001A1,false,Rx,0,5,7C,CB,00,00,8A,00,00,00,
12671767,00000521,false,Rx,0,6,00,01,00,00,02,56,00,00,
12675591,1801D08F,true,Rx,0,8,00,8C,00,5E,03,00,00,47,
12677111,0000039D,false,Rx,0,5,25,5C,01,28,00,00,00,00,
12678538,00000112,false,Rx,0,8,FB,1F,76,0B,86,01,65,49,
12682764,00000523,false,Rx,0,6,02,01,00,04,7A,45,00,00,
12683780,00000524,false,Rx,0,6,03,01,00,00,00,2F,00,00,
12688543,00000112,false,Rx,0,8,FB,1F,76,0B,86,01,65,49,
12688722,000001A1,false,Rx,0,5,7C,CB,00,00,8A,00,00,00,
12691797,00000521,false,Rx,0,6,00,02,00,00,02,64,00,00,
12698545,00000112,false,Rx,0,8,FA,1F,76,0B,86,01,65,49,
12704751,00000522,false,Rx,0,6,01,01,00,04,7A,03,00,00,
12708550,00000112,false,Rx,0,8,FA,1F,75,0B,86,01,65,49,
12708729,000001A1,false,Rx,0,5,7C,CB,00,00,8A,00,00,00,
12710700,00000100,false,Rx,0,8,01,00,00,00,3D,09,3F,12,
12710946,00000101,false,Rx,0,8,00,00,00,00,00,00,00,00,
12711673,00000521,false,Rx,0,6,00,03,00,00,02,71,00,00,
12717106,0000039D,false,Rx,0,5,26,5D,01,28,00,00,00,00,
12718553,00000112,false,Rx,0,8,FA,1F,75,0B,86,01,65,49,
12728556,00000112,false,Rx,0,8,FA,1F,75,0B,86,01,65,49,
12728808,0000003C,false,Rx,0,8,FF,5F,00,00,00,00,FF,FF,
12729052,0000003F,false,Rx,0,8,00,00,00,C0,00,C0,64,C0,
12729276,0000012F,false,Rx,0,8,F5,28,86,1D,F1,35,30,80,
12729459,000001A1,false,Rx,0,5,7C,CB,00,00,8A,00,00,00,
12729693,000002F1,false,Rx,0,8,36,10,7D,60,09,08,07,A0,
12729938,000003E9,false,Rx,0,8,FE,FF,00,00,00,00,00,00,
12730162,00000431,false,Rx,0,8,CA,FF,0B,02,69,26,F3,4B,
12731750,00000521,false,Rx,0,6,00,04,00,00,02,58,00,00,
12738562,00000112,false,Rx,0,8,FA,1F,75,0B,86,01,65,49,
12742753,00000523,false,Rx,0,6,02,02,00,04,7A,48,00,00,
12743759,00000524,false,Rx,0,6,03,02,FF,FF,FF,F6,00,00,
12748568,00000112,false,Rx,0,8,FA,1F,75,0B,86,01,65,49,
12748745,000001A1,false,Rx,0,5,7C,CB,00,00,8A,00,00,00,
12751787,00000521,false,Rx,0,6,00,05,00,00,02,74,00,00,
12757185,0000039D,false,Rx,0,5,27,5E,01,28,00,00,00,00,
12758570,00000112,false,Rx,0,8,FA,1F,75,0B,86,01,65,49,
12764739,00000522,false,Rx,0,6,01,02,00,04,7A,05,00,00,
12768570,00000112,false,Rx,0,8,FA,1F,75,0B,86,01,65,49,
12768758,000001A1,false,Rx,0,5,7C,CB,00,00,8A,00,00,00,
12771737,00000521,false,Rx,0,6,00,06,00,00,02,62,00,00,
12775128,000003B4,false,Rx,0,8,00,FF,30,F0,B8,FF,00,00,
12775601,1801D08F,true,Rx,0,8,00,8C,00,5E,03,00,00,47,
12778581,00000112,false,Rx,0,8,FA,1F,75,0B,86,01,65,49,
12788582,00000112,false,Rx,0,8,FA,1F,75,0B,86,01,65,49,
12788760,000001A1,false,Rx,0,5,7C,CB,00,00,8A,00,00,00,
12791729,00000521,false,Rx,0,6,00,07,00,00,02,69,00,00,
12795152,00000272,false,Rx,0,8,8C,F5,71,11,FF,FF,FF,FF,
12797168,0000039D,false,Rx,0,5,28,5F,01,28,00,00,00,00,
12798585,00000112,false,Rx,0,8,FA,1F,75,0B,86,01,65,49,
12802738,00000523,false,Rx,0,6,02,03,00,04,7A,43,00,00,
12803755,00000524,false,Rx,0,6,03,03,FF,FF,FF,FE,00,00,
12808583,00000112,false,Rx,0,8,FA,1F,75,0B,86,01,65,49,
12808771,000001A1,false,Rx,0,5,7C,CB,00,00,8A,00,00,00,
12810690,00000100,false,Rx,0,8,01,00,00,00,3A,09,39,12,
12810946,00000101,false,Rx,0,8,00,00,00,00,00,00,00,00,
12811768,00000521,false,Rx,0,6,00,08,00,00,02,78,00,00,
12818587,00000112,false,Rx,0,8,FA,1F,75,0B,86,01,65,49,
12824636,00000522,false,Rx,0,6,01,03,00,04,7A,36,00,00,
12828593,00000112,false,Rx,0,8,FA,1F,76,0B,86,01,65,49,
12828843,0000003C,false,Rx,0,8,FF,5F,00,00,00,00,FF,FF,
12829025,000001A1,false,Rx,0,5,7C,CB,00,00,8A,00,00,00,
12829270,000002FA,false,Rx,0,8,FD,FF,05,FF,FF,FF,FF,FF,
12829495,0000012F,false,Rx,0,8,F5,28,86,1D,F1,35,30,80,
12829739,000002F1,false,Rx,0,8,36,10,7D,60,09,08,07,A0,
12829985,0000003F,false,Rx,0,8,00,00,00,00,00,00,64,65,
12830229,000003E9,false,Rx,0,8,FE,FF,00,00,00,00,00,00,
12830452,00000431,false,Rx,0,8,CA,FF,0B,02,69,26,F3,4B,
12830688,00000432,false,Rx,0,8,2C,E2,10,A3,4E,FF,02,FF,
12830933,00000510,false,Rx,0,8,40,10,20,00,00,00,00,00,
12831178,0000051A,false,Rx,0,8,00,00,00,00,50,00,00,1A,
12831422,00000540,false,Rx,0,8,00,00,00,00,FD,3C,FF,40,
12831637,00000521,false,Rx,0,6,00,09,00,00,02,64,00,00,
12837127,0000039D,false,Rx,0,5,19,50,01,28,00,00,00,00,
12838618,00000112,false,Rx,0,8,FA,1F,76,0B,86,01,65,49,
12848620,00000112,false,Rx,0,8,FA,1F,76,0B,86,01,65,49,
12848797,000001A1,false,Rx,0,5,7C,CB,00,00,8A,00,00,00,
12851714,00000521,false,Rx,0,6,00,0A,00,00,02,5A,00,00,
12858622,00000112,false,Rx,0,8,FA,1F,76,0B,86,01,65,49,
12862715,00000523,false,Rx,0,6,02,04,00,04,7A,29,00,00,
12863742,00000524,false,Rx,0,6,03,04,FF,FF,FF,F2,00,00,
12868623,00000112,false,Rx,0,8,FA,1F,76,0B,86,01,65,49,
12868800,000001A1,false,Rx,0,5,7C,CB,00,00,8A,00,00,00,
12871760,00000521,false,Rx,0,6,00,0B,00,00,02,56,00,00,
12875596,1801D08F,true,Rx,0,8,00,8C,00,5E,03,00,00,47,
12877116,0000039D,false,Rx,0,5,1A,51,01,28,00,00,00,00,
12878629,00000112,false,Rx,0,8,FB,1F,76,0B,86,01,65,49,
12884712,00000522,false,Rx,0,6,01,04,00,04,7A,2C,00,00,
12888625,00000112,false,Rx,0,8,FB,1F,76,0B,86,01,65,49,
12888813,000001A1,false,Rx,0,5,7C,CB,00,00,8A,00,00,00,
12891625,00000521,false,Rx,0,6,00,0C,00,00,02,75,00,00,
12898636,00000112,false,Rx,0,8,FA,1F,76,0B,86,01,65,49,
12908641,00000112,false,Rx,0,8,FA,1F,76,0B,86,01,65,49,
12908818,000001A1,false,Rx,0,5,7C,CB,00,00,8A,00,00,00,
12909199,00000351,false,Rx,0,8,20,0D,C8,00,DC,05,D3,0A,
12909433,00000355,false,Rx,0,8,27,00,64,00,86,01,00,00,
12909679,00000356,false,Rx,0,8,A6,72,FA,FF,E1,00,00,00,
12910703,00000100,false,Rx,0,8,01,00,00,00,3D,09,3F,12,
12910937,00000101,false,Rx,0,8,00,00,00,00,00,00,00,00,
12911561,0000035A,false,Rx,0,8,00,00,00,00,00,00,00,00,
12911784,0000035E,false,Rx,0,8,53,49,4D,50,20,42,4D,53,
12911987,00000521,false,Rx,0,6,00,0D,00,00,02,4E,00,00,
12913548,00000370,false,Rx,0,8,53,49,4D,50,20,45,43,4F,
12915563,00000373,false,Rx,0,8,8E,0D,AA,0D,27,01,28,01,
12917157,0000039D,false,Rx,0,5,1B,52,01,28,00,00,00,00,
12917581,00000379,false,Rx,0,8,D2,00,00,00,01,00,00,00,
12918634,00000112,false,Rx,0,8,FB,1F,76,0B,86,01,65,49,
12919582,00000372,false,Rx,0,8,0E,00,00,00,00,00,00,00,
12922698,00000523,false,Rx,0,6,02,05,00,04,7A,3F,00,00,
12923727,00000524,false,Rx,0,6,03,05,FF,FF,FF,E8,00,00,
12928637,00000112,false,Rx,0,8,FB,1F,76,0B,86,01,65,49,
12928888,0000003C,false,Rx,0,8,FF,5F,00,00,00,00,FF,FF,
12929133,0000003F,false,Rx,0,8,00,00,00,40,00,40,64,6B,
12929357,0000012F,false,Rx,0,8,F5,28,86,1D,F1,35,30,80,
12929540,000001A1,false,Rx,0,5,7C,CB,00,00,8A,00,00,00,
12929784,000002F1,false,Rx,0,8,36,10,7D,60,09,08,07,A0,
12930029,000003E9,false,Rx,0,8,FE,FF,00,00,00,00,00,00,
12930253,00000431,false,Rx,0,8,CA,FF,0B,02,69,26,F3,4B,
12931745,00000521,false,Rx,0,6,00,0E,00,00,02,7F,00,00,
12938654,00000112,false,Rx,0,8,FA,1F,76,0B,86,01,65,49,
12944690,00000522,false,Rx,0,6,01,05,00,04,7A,2C,00,00,
12947231,0000035D,false,Rx,0,8,01,00,00,00,00,00,00,00,
12948660,00000112,false,Rx,0,8,FA,1F,76,0B,86,01,65,49,
12948841,000001A1,false,Rx,0,5,7C,CB,00,00,8A,00,00,00,
12951690,00000521,false,Rx,0,6,00,0F,00,00,02,65,00,00,
12957167,0000039D,false,Rx,0,5,1C,53,01,28,00,00,00,00,
12958657,00000112,false,Rx,0,8,FA,1F,76,0B,86,01,65,49,
12968662,00000112,false,Rx,0,8,FA,1F,76,0B,86,01,65,49,
12968849,000001A1,false,Rx,0,5,7C,CB,00,00,8A,00,00,00,
12971693,00000521,false,Rx,0,6,00,00,00,00,02,53,00,00,
12975464,000003B4,false,Rx,0,8,00,FF,30,F0,B8,FF,00,00,
12975747,1801D08F,true,Rx,0,8,00,8C,00,5E,03,00,00,47,
12978665,00000112,false,Rx,0,8,FB,1F,76,0B,86,01,65,49,
12982681,00000523,false,Rx,0,6,02,06,00,04,7A,37,00,00,
12983699,00000524,false,Rx,0,6,03,06,FF,FF,FF,FA,00,00,
12988672,00000112,false,Rx,0,8,FB,1F,76,0B,86,01,65,49,
12988850,000001A1,false,Rx,0,5,7C,CB,00,00,8A,00,00,00,
12991735,00000521,false,Rx,0,6,00,01,00,00,02,78,00,00,
12995697,00000272,false,Rx,0,8,6B,F6,71,11,FF,FF,FF,FF,
12997155,0000039D,false,Rx,0,5,1D,54,01,28,00,00,00,00,
12998676,00000112,false,Rx,0,8,FA,1F,76,0B,86,01,65,49,
13004675,00000522,false,Rx,0,6,01,06,00,04,7A,1E,00,00,
13008673,00000112,false,Rx,0,8,FA,1F,76,0B,86,01,65,49,
13008861,000001A1,false,Rx,0,5,7C,CB,00,00,8A,00,00,00,
13010681,00000100,false,Rx,0,8,01,00,00,00,3D,09,39,12,
13010934,00000101,false,Rx,0,8,00,00,00,00,00,00,00,00,
13011683,00000521,false,Rx,0,6,00,02,00,00,02,4C,00,00,
13018676,00000112,false,Rx,0,8,FB,1F,76,0B,86,01,65,49,
13028683,00000112,false,Rx,0,8,FB,1F,76,0B,86,01,65,49,
13028935,0000003C,false,Rx,0,8,FF,5F,00,00,00,00,FF,FF,
13029117,000001A1,false,Rx,0,5,7C,CB,00,00,8A,00,00,00,
13029360,000002FA,false,Rx,0,8,FD,FF,05,FF,FF,FF,FF,FF,
13029585,0000012F,false,Rx,0,8,F5,28,86,1D,F1,35,30,80,
13029820,000002F1,false,Rx,0,8,36,10,7D,60,09,08,07,A0,
13030075,0000003F,false,Rx,0,8,00,00,00,80,00,80,64,CE,
13030319,000003E9,false,Rx,0,8,FE,FF,00,00,00,00,00,00,
13030545,00000431,false,Rx,0,8,CA,FF,0B,02,69,26,F3,4B,
13030779,00000432,false,Rx,0,8,2C,E2,10,A3,4E,FF,02,FF,
13031023,00000510,false,Rx,0,8,40,10,20,00,00,00,00,00,
13031269,0000051A,false,Rx,0,8,00,00,00,00,50,00,00,1A,
13031515,00000540,false,Rx,0,8,00,00,00,00,FD,3C,FF,40,
13031717,00000521,false,Rx,0,6,00,03,00,00,02,67,00,00,
13037092,0000039D,false,Rx,0,5,1E,55,01,28,00,00,00,00,
13038707,00000112,false,Rx,0,8,FA,1F,76,0B,86,01,65,49,
13042674,00000523,false,Rx,0,6,02,07,00,04,7A,4A,00,00,
13043693,00000524,false,Rx,0,6,03,07,FF,FF,FF,F6,00,00,
13048708,00000112,false,Rx,0,8,FA,1F,76,0B,86,01,65,49,
13048887,000001A1,false,Rx,0,5,7C,CB,00,00,8A,00,00,00,
13051719,00000521,false,Rx,0,6,00,04,00,00,02,6C,00,00,
13058709,00000112,false,Rx,0,8,FA,1F,76,0B,86,01,65,49,
13064661,00000522,false,Rx,0,6,01,07,00,04,7A,55,00,00,
13068713,00000112,false,Rx,0,8,FA,1F,76,0B,86,01,65,49,
13068892,000001A1,false,Rx,0,5,7C,CB,00,00,8A,00,00,00,
13071661,00000521,false,Rx,0,6,00,05,00,00,02,53,00,00,
13075590,1801D08F,true,Rx,0,8,00,8C,00,5E,03,00,00,47,
13077101,0000039D,false,Rx,0,5,1F,56,01,28,00,00,00,00,
13078716,00000112,false,Rx,0,8,FB,1F,76,0B,86,01,65,49,
13088715,00000112,false,Rx,0,8,FB,1F,76,0B,86,01,65,49,
13088905,000001A1,false,Rx,0,5,7C,CB,00,00,8A,00,00,00,
13091663,00000521,false,Rx,0,6,00,06,00,00,02,63,00,00,
13098717,00000112,false,Rx,0,8,FA,1F,76,0B,86,01,65,49,
13102654,00000523,false,Rx,0,6,02,08,00,04,7A,3D,00,00,
13103681,00000524,false,Rx,0,6,03,08,FF,FF,FF,D7,00,00,
13108728,00000112,false,Rx,0,8,FA,1F,76,0B,86,01,65,49,
13108907,000001A1,false,Rx,0,5,7C,CB,00,00,8A,00,00,00,
13110673,00000100,false,Rx,0,8,01,00,00,00,3D,09,39,12,
13110926,00000101,false,Rx,0,8,00,00,00,00,00,00,00,00,
13111697,00000521,false,Rx,0,6,00,07,00,00,02,64,00,00,
13117136,0000039D,false,Rx,0,5,20,57,01,28,00,00,00,00,
13118731,00000112,false,Rx,0,8,FA,1F,76,0B,86,01,65,49,
13124641,00000522,false,Rx,0,6,01,08,00,04,7A,2E,00,00,
13128736,00000112,false,Rx,0,8,FA,1F,76,0B,86,01,65,49,
13128986,0000003C,false,Rx,0,8,FF,5F,00,00,00,00,FF,FF,
13129220,0000003F,false,Rx,0,8,00,00,00,C0,00,C0,64,C0,
13129454,0000012F,false,Rx,0,8,F5,28,86,1D,F1,35,30,80,
13129638,000001A1,false,Rx,0,5,7C,CB,00,00,8A,00,00,00,
13129871,000002F1,false,Rx,0,8,36,10,7D,60,09,08,07,A0,
13130116,000003E9,false,Rx,0,8,FE,FF,00,00,00,00,00,00,
13130340,00000431,false,Rx,0,8,CA,FF,0B,02,69,26,F3,4B,
13131644,00000521,false,Rx,0,6,00,08,00,00,02,69,00,00,
13138740,00000112,false,Rx,0,8,FA,1F,76,0B,86,01,65,49,
13148744,00000112,false,Rx,0,8,FA,1F,76,0B,86,01,65,49,
13148932,000001A1,false,Rx,0,5,7C,CB,00,00,8A,00,00,00,
13151649,00000521,false,Rx,0,6,00,09,00,00,02,73,00,00,
13157184,0000039D,false,Rx,0,5,21,58,01,28,00,00,00,00,
13158747,00000112,false,Rx,0,8,FA,1F,76,0B,86,01,65,49,
13162638,00000523,false,Rx,0,6,02,09,00,04,7A,2B,00,00,
13163654,00000524,false,Rx,0,6,03,09,00,00,00,08,00,00,
13168757,00000112,false,Rx,0,8,FA,1F,76,0B,86,01,65,49,
13168934,000001A1,false,Rx,0,5,7C,CB,00,00,8A,00,00,00,
13171682,00000521,false,Rx,0,6,00,0A,00,00,02,7A,00,00,
13175591,1801D08F,true,Rx,0,8,00,8C,00,5E,03,00,00,47,
13175957,00000337,false,Rx,0,2,FF,FF,00,00,00,00,00,00,
13176232,000003B4,false,Rx,0,8,00,FF,30,F0,B8,FF,00,00,
13178753,00000112,false,Rx,0,8,FA,1F,76,0B,86,01,65,49,
13184626,00000522,false,Rx,0,6,01,09,00,04,7A,0D,00,00,
13188763,00000112,false,Rx,0,8,FA,1F,75,0B,86,01,65,49,
13188940,000001A1,false,Rx,0,5,7C,CB,00,00,8A,00,00,00,
13191553,00000521,false,Rx,0,6,00,0B,00,00,02,6E,00,00,
13195883,00000272,false,Rx,0,8,36,F7,71,11,FF,FF,FF,FF,
13197122,0000039D,false,Rx,0,5,22,59,01,28,00,00,00,00,
13197365,000005BD,false,Rx,0,8,8C,80,00,00,00,00,00,00,
13198764,00000112,false,Rx,0,8,FA,1F,75,0B,86,01,65,49,
13208763,00000112,false,Rx,0,8,FA,1F,75,0B,86,01,65,49,
13208951,000001A1,false,Rx,0,5,7C,CB,00,00,8A,00,00,00,
13210676,00000100,false,Rx,0,8,01,00,00,00,3D,09,3F,12,
13210919,00000101,false,Rx,0,8,00,00,00,00,00,00,00,00,
13211625,00000521,false,Rx,0,6,00,0C,00,00,02,5D,00,00,
13218765,00000112,false,Rx,0,8,FA,1F,75,0B,86,01,65,49,
13222617,00000523,false,Rx,0,6,02,0A,00,04,7A,23,00,00,
13223645,00000524,false,Rx,0,6,03,0A,00,00,00,0E,00,00,
13228767,00000112,false,Rx,0,8,FA,1F,75,0B,86,01,65,49,
13228955,000001A1,false,Rx,0,5,7C,CB,00,00,8A,00,00,00,
13229199,000002FA,false,Rx,0,8,FD,FF,05,FF,FF,FF,FF,FF,
13229402,00000328,false,Rx,0,6,0C,00,00,00,87,1E,00,00,
13229658,000002FC,false,Rx,0,8,01,00,F3,FF,FF,FF,FF,FF,
13229902,000002A0,false,Rx,0,8,F8,88,F8,0F,FF,FF,FF,FF,
13230148,000003A0,false,Rx,0,8,FF,FF,C0,FF,FF,FF,FF,FC,
13230392,0000003C,false,Rx,0,8,FF,5F,00,00,00,00,FF,FF,
13230533,000003E8,false,Rx,0,2,F1,FF,00,00,00,00,00,00,
13230776,000003E9,false,Rx,0,8,FE,FF,00,00,00,00,00,00,
13231002,0000012F,false,Rx,0,8,F5,28,86,1D,F1,35,30,80,
13231236,000002F1,false,Rx,0,8,36,10,7D,60,09,08,07,A0,
13231492,0000003F,false,Rx,0,8,00,00,00,00,00,00,64,65,
13231727,000003F9,false,Rx,0,8,C0,F9,80,E0,43,3C,F3,FF,
13231950,00000431,false,Rx,0,8,CA,FF,0B,02,69,26,F3,4B,
13232184,00000432,false,Rx,0,8,2C,E2,10,A3,4E,FF,02,FF,
13232430,00000510,false,Rx,0,8,40,10,20,00,00,00,00,00,
13232675,0000051A,false,Rx,0,8,00,00,00,00,50,00,00,1A,
13232878,00000521,false,Rx,0,6,00,0D,00,00,02,72,00,00,
13233122,00000540,false,Rx,0,8,00,00,00,00,FD,3C,FF,40,
13237105,0000039D,false,Rx,0,5,23,5A,01,28,00,00,00,00,
13238804,00000112,false,Rx,0,8,FA,1F,75,0B,86,01,65,49,
13244617,00000522,false,Rx,0,6,01,0A,00,04,7A,09,00,00,
13248806,00000112,false,Rx,0,8,FA,1F,75,0B,86,01,65,49,
13248983,000001A1,false,Rx,0,5,7C,CB,00,00,8A,00,00,00,
13251532,00000521,false,Rx,0,6,00,0E,00,00,02,6D,00,00,
13258808,00000112,false,Rx,0,8,FA,1F,75,0B,86,01,65,49,
13268815,00000112,false,Rx,0,8,FA,1F,75,0B,86,01,65,49,
13268992,000001A1,false,Rx,0,5,7C,CB,00,00,8A,00,00,00,
13271617,00000521,false,Rx,0,6,00,0F,00,00,02,69,00,00,
13275567,1801D08F,true,Rx,0,8,00,8C,00,5E,03,00,00,47,
13277141,0000039D,false,Rx,0,5,24,5B,01,28,00,00,00,00,
13277384,0000035D,false,Rx,0,8,02,00,88,08,00,00,20,F0,
13278814,00000112,false,Rx,0,8,FA,1F,75,0B,86,01,65,49,
13282608,00000523,false,Rx,0,6,02,0B,00,04,7A,06,00,00,
13283625,00000524,false,Rx,0,6,03,0B,FF,FF,FF,EE,00,00,
13288821,00000112,false,Rx,0,8,FA,1F,75,0B,86,01,65,49,
13288998,000001A1,false,Rx,0,5,7C,CB,00,00,8A,00,00,00,
13291664,00000521,false,Rx,0,6,00,00,00,00,02,70,00,00,
13298822,00000112,false,Rx,0,8,FA,1F,75,0B,86,01,65,49,
13304607,00000522,false,Rx,0,6,01,0B,00,04,7A,30,00,00,
13308826,00000112,false,Rx,0,8,FA,1F,76,0B,86,01,65,49,
13309004,000001A1,false,Rx,0,5,7C,CB,00,00,8A,00,00,00,
13310634,00000100,false,Rx,0,8,01,00,00,00,3D,09,3F,12,
13310888,00000101,false,Rx,0,8,00,00,00,00,00,00,00,00,
13311522,00000521,false,Rx,0,6,00,01,00,00,02,69,00,00,
13317118,0000039D,false,Rx,0,5,25,5C,01,28,00,00,00,00,
13318827,00000112,false,Rx,0,8,FA,1F,76,0B,86,01,65,49,
13328830,00000112,false,Rx,0,8,FA,1F,76,0B,86,01,65,49,
13329081,0000003C,false,Rx,0,8,FF,5F,00,00,00,00,FF,FF,
13329327,0000003F,false,Rx,0,8,00,00,00,40,00,40,64,6B,
13329551,0000012F,false,Rx,0,8,F5,28,86,1D,F1,35,30,80,
13329733,000001A1,false,Rx,0,5,7C,CB,00,00,8A,00,00,00,
13329967,000002F1,false,Rx,0,8,36,10,7D,60,09,08,07,A0,
13330211,000003E9,false,Rx,0,8,FE,FF,00,00,00,00,00,00,
13330445,00000431,false,Rx,0,8,CA,FF,0B,02,69,26,F3,4B,
13331593,00000521,false,Rx,0,6,00,02,00,00,02,66,00,00,
13338846,00000112,false,Rx,0,8,FA,1F,76,0B,86,01,65,49,
13342604,00000523,false,Rx,0,6,02,0C,00,04,7A,5C,00,00,
13343620,00000524,false,Rx,0,6,03,0C,00,00,00,00,00,00,
13348848,00000112,false,Rx,0,8,FA,1F,76,0B,86,01,65,49,
13349025,000001A1,false,Rx,0,5,7C,CB,00,00,8A,00,00,00,
13351639,00000521,false,Rx,0,6,00,03,00,00,02,4D,00,00,
13357171,0000039D,false,Rx,0,5,26,5D,01,28,00,00,00,00,
13358849,00000112,false,Rx,0,8,FB,1F,76,0B,86,01,65,49,
13364599,00000522,false,Rx,0,6,01,0C,00,04,7A,07,00,00,
13368850,00000112,false,Rx,0,8,FB,1F,75,0B,86,01,65,49,
13369028,000001A1,false,Rx,0,5,7C,CB,00,00,8A,00,00,00,
13371505,00000521,false,Rx,0,6,00,04,00,00,02,60,00,00,
13375570,1801D08F,true,Rx,0,8,00,8C,00,5E,03,00,00,47,
13376209,000003B4,false,Rx,0,8,00,FF,30,F0,B8,FF,00,00,
13378853,00000112,false,Rx,0,8,FA,1F,75,0B,86,01,65,49,
13388854,00000112,false,Rx,0,8,FA,1F,75,0B,86,01,65,49,
13389042,000001A1,false,Rx,0,5,7C,CB,00,00,8A,00,00,00,
13391583,00000521,false,Rx,0,6,00,05,00,00,02,64,00,00,
13396238,00000272,false,Rx,0,8,6A,F8,71,11,FF,FF,FF,FF,
13397087,0000039D,false,Rx,0,5,27,5E,01,28,00,00,00,00,
13398860,00000112,false,Rx,0,8,FA,1F,75,0B,86,01,65,49,
13402577,00000523,false,Rx,0,6,02,0D,00,04,7A,4E,00,00,
13403604,00000524,false,Rx,0,6,03,0D,FF,FF,FF,FC,00,00,
13408863,00000112,false,Rx,0,8,FA,1F,75,0B,86,01,65,49,
13409052,000001A1,false,Rx,0,5,7C,CB,00,00,8A,00,00,00,
13410630,00000100,false,Rx,0,8,01,00,00,00,3D,09,3F,12,
13410885,00000101,false,Rx,0,8,00,00,00,00,00,00,00,00,
13411634,00000521,false,Rx,0,6,00,06,00,00,02,58,00,00,
13418865,00000112,false,Rx,0,8,FA,1F,75,0B,86,01,65,49,
13424566,00000522,false,Rx,0,6,01,0D,00,04,7A,43,00,00,
13428870,00000112,false,Rx,0,8,FA,1F,76,0B,86,01,65,49,
13429122,0000003C,false,Rx,0,8,FF,5F,00,00,00,00,FF,FF,
13429303,000001A1,false,Rx,0,5,7C,CB,00,00,8A,00,00,00,
13429548,000002FA,false,Rx,0,8,FD,FF,05,FF,FF,FF,FF,FF,
13429771,0000012F,false,Rx,0,8,F5,28,86,1D,F1,35,30,80,
13430017,000002F1,false,Rx,0,8,36,10,7D,60,09,08,07,A0,
13430261,0000003F,false,Rx,0,8,00,00,00,80,00,80,64,CE,
13430507,000003E9,false,Rx,0,8,FE,FF,00,00,00,00,00,00,
13430731,00000431,false,Rx,0,8,CA,FF,0B,02,69,26,F3,4B,
13430965,00000432,false,Rx,0,8,2C,E2,10,A3,4E,FF,02,FF,
13431210,00000510,false,Rx,0,8,40,10,20,00,00,00,00,00,
13431455,0000051A,false,Rx,0,8,00,00,00,00,50,00,00,1A,
13431660,00000521,false,Rx,0,6,00,07,00,00,02,65,00,00,
13431904,00000540,false,Rx,0,8,00,00,00,00,FD,3C,FF,40,
13437089,0000039D,false,Rx,0,5,28,5F,01,28,00,00,00,00,
13438892,00000112,false,Rx,0,8,FA,1F,76,0B,86,01,65,49,
13448896,00000112,false,Rx,0,8,FA,1F,76,0B,86,01,65,49,
13449074,000001A1,false,Rx,0,5,7C,CB,00,00,8A,00,00,00,
13451562,00000521,false,Rx,0,6,00,08,00,00,02,66,00,00,
13458898,00000112,false,Rx,0,8,FA,1F,76,0B,86,01,65,49,
13462581,00000523,false,Rx,0,6,02,0E,00,04,7A,39,00,00,
13463588,00000524,false,Rx,0,6,03,0E,FF,FF,FF,EC,00,00,
13468898,00000112,false,Rx,0,8,FA,1F,76,0B,86,01,65,49,
13469077,000001A1,false,Rx,0,5,7C,CB,00,00,8A,00,00,00,
13471608,00000521,false,Rx,0,6,00,09,00,00,02,87,00,00,
13475577,1801D08F,true,Rx,0,8,00,8C,00,5E,03,00,00,47,
13477129,0000039D,false,Rx,0,5,19,50,01,28,00,00,00,00,
13478901,00000112,false,Rx,0,8,FA,1F,76,0B,86,01,65,49,
13484481,00000522,false,Rx,0,6,01,0E,00,04,7A,22,00,00,
13488912,00000112,false,Rx,0,8,FA,1F,76,0B,86,01,65,49,
13489090,000001A1,false,Rx,0,5,7C,CB,00,00,8A,00,00,00,
13491556,00000521,false,Rx,0,6,00,0A,00,00,02,78,00,00,
13498915,00000112,false,Rx,0,8,FA,1F,76,0B,86,01,65,49,
13508910,00000112,false,Rx,0,8,FA,1F,76,0B,86,01,65,49,
13509098,000001A1,false,Rx,0,5,7C,CB,00,00,8A,00,00,00,
13510634,00000100,false,Rx,0,8,01,00,00,00,3D,09,39,12,
13510889,00000101,false,Rx,0,8,00,00,00,00,00,00,00,00,
13511555,00000521,false,Rx,0,6,00,0B,00,00,02,5B,00,00,
13517138,0000039D,false,Rx,0,5,1A,51,01,28,00,00,00,00,
13518913,00000112,false,Rx,0,8,FA,1F,76,0B,86,01,65,49,
13522551,00000523,false,Rx,0,6,02,0F,00,04,7A,64,00,00,
13523569,00000524,false,Rx,0,6,03,0F,FF,FF,FF,F6,00,00,
13528923,00000112,false,Rx,0,8,FA,1F,76,0B,86,01,65,49,
13529174,0000003C,false,Rx,0,8,FF,5F,00,00,00,00,FF,FF,
13529418,0000003F,false,Rx,0,8,00,00,00,C0,00,C0,64,C0,
13529644,0000012F,false,Rx,0,8,F5,28,86,1D,F1,35,30,80,
13529825,000001A1,false,Rx,0,5,7C,CB,00,00,8A,00,00,00,
13530059,000002F1,false,Rx,0,8,36,10,7D,60,09,08,07,A0,
13530303,000003E9,false,Rx,0,8,FE,FF,00,00,00,00,00,00,
13530529,00000431,false,Rx,0,8,CA,FF,0B,02,69,26,F3,4B,
13531590,00000521,false,Rx,0,6,00,0C,00,00,02,64,00,00,
13538938,00000112,false,Rx,0,8,FA,1F,76,0B,86,01,65,49,
13541418,00000351,false,Rx,0,8,20,0D,C8,00,DC,05,D3,0A,
13541660,00000355,false,Rx,0,8,27,00,64,00,86,01,00,00,
13541894,00000356,false,Rx,0,8,A6,72,FA,FF,E1,00,00,00,
13543786,0000035A,false,Rx,0,8,00,00,00,00,00,00,00,00,
13544009,0000035E,false,Rx,0,8,53,49,4D,50,20,42,4D,53,
13544538,00000522,false,Rx,0,6,01,0F,00,04,7A,2E,00,00,
13545770,00000370,false,Rx,0,8,53,49,4D,50,20,45,43,4F,
13546498,000003C3,false,Rx,0,8,86,14,08,82,20,08,82,20,
13547791,00000373,false,Rx,0,8,8E,0D,AA,0D,27,01,28,01,
13548939,00000112,false,Rx,0,8,FA,1F,76,0B,86,01,65,49,
13549121,000001A1,false,Rx,0,5,7C,CB,00,00,8A,00,00,00,
13549806,00000379,false,Rx,0,8,D2,00,00,00,01,00,00,00,
13551457,00000521,false,Rx,0,6,00,0D,00,00,02,65,00,00,
13551805,00000372,false,Rx,0,8,0E,00,00,00,00,00,00,00,
13557124,0000039D,false,Rx,0,5,1B,52,01,28,00,00,00,00,
13558939,00000112,false,Rx,0,8,FA,1F,76,0B,86,01,65,49,
13568944,00000112,false,Rx,0,8,FA,1F,76,0B,86,01,65,49,
13569121,000001A1,false,Rx,0,5,7C,CB,00,00,8A,00,00,00,
13571461,00000521,false,Rx,0,6,00,0E,00,00,02,6E,00,00,
13575578,1801D08F,true,Rx,0,8,00,8C,00,5E,03,00,00,47,
13576503,000003B4,false,Rx,0,8,00,FF,30,F0,B8,FF,00,00,
13578947,00000112,false,Rx,0,8,FA,1F,76,0B,86,01,65,49,
13582531,00000523,false,Rx,0,6,02,00,00,04,7A,3B,00,00,
13583549,00000524,false,Rx,0,6,03,00,FF,FF,FF,F8,00,00,
13588946,00000112,false,Rx,0,8,FA,1F,76,0B,86,01,65,49,
13589134,000001A1,false,Rx,0,5,7C,CB,00,00,8A,00,00,00,
13591578,00000521,false,Rx,0,6,00,0F,00,00,02,51,00,00,
13596856,00000272,false,Rx,0,8,37,F9,71,11,FF,FF,FF,FF,
13597086,0000039D,false,Rx,0,5,1C,53,01,28,00,00,00,00,
13598954,00000112,false,Rx,0,8,FB,1F,76,0B,86,01,65,49,
13604527,00000522,false,Rx,0,6,01,00,00,04,7A,5F,00,00,
13607300,0000035D,false,Rx,0,8,00,00,00,00,00,00,00,00,
13608958,00000112,false,Rx,0,8,FB,1F,76,0B,86,01,65,49,
13609140,000001A1,false,Rx,0,5,7C,CB,00,00,8A,00,00,00,
13610642,00000100,false,Rx,0,8,01,00,00,00,3D,09,39,12,
13610897,00000101,false,Rx,0,8,00,00,00,00,00,00,00,00,
13611529,00000521,false,Rx,0,6,00,00,00,00,02,53,00,00,
13618960,00000112,false,Rx,0,8,FB,1F,76,0B,86,01,65,49,
13628964,00000112,false,Rx,0,8,FB,1F,76,0B,86,01,65,49,
13629215,0000003C,false,Rx,0,8,FF,5F,00,00,00,00,FF,FF,
13629396,000001A1,false,Rx,0,5,7C,CB,00,00,8A,00,00,00,
13629643,000002FA,false,Rx,0,8,FD,FF,05,FF,FF,FF,FF,FF,
13629866,0000012F,false,Rx,0,8,F5,28,86,1D,F1,35,30,80,
13630100,000002F1,false,Rx,0,8,36,10,7D,60,09,08,07,A0,
13630346,0000003F,false,Rx,0,8,00,00,00,00,00,00,64,65,
13630603,000003E9,false,Rx,0,8,FE,FF,00,00,00,00,00,00,
13630826,00000431,false,Rx,0,8,CA,FF,0B,02,69,26,F3,4B,
13631054,00000432,false,Rx,0,8,2C,E2,10,A3,4E,FF,02,FF,
13631308,00000510,false,Rx,0,8,40,10,20,00,00,00,00,00,
13631544,0000051A,false,Rx,0,8,00,00,00,00,50,00,00,1A,
13631757,00000521,false,Rx,0,6,00,01,00,00,02,73,00,00,
13632002,00000540,false,Rx,0,8,00,00,00,00,FD,3C,FF,40,
13637121,0000039D,false,Rx,0,5,1D,54,01,28,00,00,00,00,
13637372,0000032D,false,Rx,0,8,14,00,00,00,00,00,00,00,
13638982,00000112,false,Rx,0,8,FA,1F,76,0B,86,01,65,49,
13642519,00000523,false,Rx,0,6,02,01,00,04,7A,16,00,00,
13643546,00000524,false,Rx,0,6,03,01,FF,FF,FF,E8,00,00,
13648985,00000112,false,Rx,0,8,FA,1F,76,0B,86,01,65,49,
13649162,000001A1,false,Rx,0,5,7C,CB,00,00,8A,00,00,00,
13651576,00000521,false,Rx,0,6,00,02,00,00,02,65,00,00,
13658988,00000112,false,Rx,0,8,FA,1F,76,0B,86,01,65,49,
13664518,00000522,false,Rx,0,6,01,01,00,04,7A,3A,00,00,
13668991,00000112,false,Rx,0,8,FA,1F,76,0B,86,01,65,49,
13669168,000001A1,false,Rx,0,5,7C,CB,00,00,8A,00,00,00,
13671434,00000521,false,Rx,0,6,00,03,00,00,02,6D,00,00,
13675562,1801D08F,true,Rx,0,8,00,8C,00,5E,03,00,00,47,
13677104,0000039D,false,Rx,0,5,1E,55,01,28,00,00,00,00,
13678991,00000112,false,Rx,0,8,FA,1F,76,0B,86,01,65,49,
13688994,00000112,false,Rx,0,8,FA,1F,76,0B,86,01,65,49,
13689182,000001A1,false,Rx,0,5,7C,CB,00,00,8A,00,00,00,
13691511,00000521,false,Rx,0,6,00,04,00,00,02,65,00,00,
13698996,00000112,false,Rx,0,8,FA,1F,76,0B,86,01,65,49,
13702502,00000523,false,Rx,0,6,02,02,00,04,7A,54,00,00,
13703540,00000524,false,Rx,0,6,03,02,FF,FF,FF,CB,00,00,
13709000,00000112,false,Rx,0,8,FA,1F,76,0B,86,01,65,49,
13709188,000001A1,false,Rx,0,5,7C,CB,00,00,8A,00,00,00,
13710650,00000100,false,Rx,0,8,01,00,00,00,3D,09,39,12,
13710896,00000101,false,Rx,0,8,00,00,00,00,00,00,00,00,
13711551,00000521,false,Rx,0,6,00,05,00,00,02,54,00,00,
13717125,0000039D,false,Rx,0,5,1F,56,01,28,00,00,00,00,
13719004,00000112,false,Rx,0,8,FB,1F,76,0B,86,01,65,49,
13724426,00000522,false,Rx,0,6,01,02,00,04,7A,20,00,00,
13729006,00000112,false,Rx,0,8,FB,1F,76,0B,86,01,65,49,
13729256,0000003C,false,Rx,0,8,FF,5F,00,00,00,00,FF,FF,
13729503,0000003F,false,Rx,0,8,00,00,00,40,00,40,64,6B,
13729726,0000012F,false,Rx,0,8,F5,28,86,1D,F1,35,30,80,
13729908,000001A1,false,Rx,0,5,7C,CB,00,00,8A,00,00,00,
13730143,000002F1,false,Rx,0,8,36,10,7D,60,09,08,07,A0,
13730397,000003E9,false,Rx,0,8,FE,FF,00,00,00,00,00,00,
13730622,00000431,false,Rx,0,8,CA,FF,0B,02,69,26,F3,4B,
13731420,00000521,false,Rx,0,6,00,06,00,00,02,54,00,00,
13739020,00000112,false,Rx,0,8,FB,1F,76,0B,86,01,65,49,
13749024,00000112,false,Rx,0,8,FB,1F,76,0B,86,01,65,49,
13749202,000001A1,false,Rx,0,5,7C,CB,00,00,8A,00,00,00,
13751500,00000521,false,Rx,0,6,00,07,00,00,02,59,00,00,
13757106,0000039D,false,Rx,0,5,20,57,01,28,00,00,00,00,
13759025,00000112,false,Rx,0,8,FA,1F,76,0B,86,01,65,49,
13762498,00000523,false,Rx,0,6,02,03,00,04,7A,50,00,00,
13763515,00000524,false,Rx,0,6,03,03,FF,FF,FF,EC,00,00,
13769026,00000112,false,Rx,0,8,FA,1F,76,0B,86,01,65,49,
13769214,000001A1,false,Rx,0,5,7C,CB,00,00,8A,00,00,00,
13771535,00000521,false,Rx,0,6,00,08,00,00,02,71,00,00,
13775556,1801D08F,true,Rx,0,8,00,8C,00,5E,03,00,00,47,
13777161,000003B4,false,Rx,0,8,00,FF,30,F0,B8,FF,00,00,
13779028,00000112,false,Rx,0,8,FA,1F,76,0B,86,01,65,49,
13784492,00000522,false,Rx,0,6,01,03,00,04,7A,3A,00,00,
13789040,00000112,false,Rx,0,8,FA,1F,76,0B,86,01,65,49,
13789219,000001A1,false,Rx,0,5,7C,CB,00,00,8A,00,00,00,
13791400,00000521,false,Rx,0,6,00,09,00,00,02,6E,00,00,
13796856,00000272,false,Rx,0,8,D0,FA,71,11,FF,FF,FF,FF,
13797066,0000039D,false,Rx,0,5,21,58,01,28,00,00,00,00,
13799037,00000112,false,Rx,0,8,FA,1F,76,0B,86,01,65,49,
13809044,00000112,false,Rx,0,8,FA,1F,76,0B,86,01,65,49,
13809222,000001A1,false,Rx,0,5,7C,CB,00,00,8A,00,00,00,
13810642,00000100,false,Rx,0,8,01,00,00,00,3D,09,3F,12,
13810898,00000101,false,Rx,0,8,00,00,00,00,00,00,00,00,
13811480,00000521,false,Rx,0,6,00,0A,00,00,02,6B,00,00,
13819045,00000112,false,Rx,0,8,FA,1F,76,0B,86,01,65,49,
13822487,00000523,false,Rx,0,6,02,04,00,04,7A,39,00,00,
13823503,00000524,false,Rx,0,6,03,04,00,00,00,1E,00,00,
13829050,00000112,false,Rx,0,8,FA,1F,76,0B,86,01,65,49,
13829303,0000003C,false,Rx,0,8,FF,5F,00,00,00,00,FF,FF,
13829485,000001A1,false,Rx,0,5,7C,CB,00,00,8A,00,00,00,
13829729,000002FA,false,Rx,0,8,FD,FF,05,FF,FF,FF,FF,FF,
13829954,0000012F,false,Rx,0,8,F5,28,86,1D,F1,35,30,80,
13830188,000002F1,false,Rx,0,8,36,10,7D,60,09,08,07,A0,
13830432,0000003F,false,Rx,0,8,00,00,00,80,00,80,64,CE,
13830689,000003E9,false,Rx,0,8,FE,FF,00,00,00,00,00,00,
13830913,00000431,false,Rx,0,8,CA,FF,0B,02,69,26,F3,4B,
13831136,00000432,false,Rx,0,8,2C,E2,10,A3,4E,FF,02,FF,
13831391,00000510,false,Rx,0,8,40,10,20,00,00,00,00,00,
13831638,0000051A,false,Rx,0,8,00,00,00,00,50,00,00,1A,
13831840,00000521,false,Rx,0,6,00,0B,00,00,02,6F,00,00,
13832084,00000540,false,Rx,0,8,00,00,00,00,FD,3C,FF,40,
13837110,0000039D,false,Rx,0,5,22,59,01,28,00,00,00,00,
13839072,00000112,false,Rx,0,8,FA,1F,76,0B,86,01,65,49,
13844475,00000522,false,Rx,0,6,01,04,00,04,7A,13,00,00,
13849075,00000112,false,Rx,0,8,FA,1F,75,0B,86,01,65,49,
13849254,000001A1,false,Rx,0,5,7C,CB,00,00,8A,00,00,00,
13851382,00000521,false,Rx,0,6,00,0C,00,00,02,5D,00,00,
13859077,00000112,false,Rx,0,8,FA,1F,75,0B,86,01,65,49,
13869084,00000112,false,Rx,0,8,FA,1F,75,0B,86,01,65,49,
13869262,000001A1,false,Rx,0,5,7C,CB,00,00,8A,00,00,00,
13871476,00000521,false,Rx,0,6,00,0D,00,00,02,6F,00,00,
13875570,1801D08F,true,Rx,0,8,00,8C,00,5E,03,00,00,47,
13877122,0000039D,false,Rx,0,5,23,5A,01,28,00,00,00,00,
13879084,00000112,false,Rx,0,8,FA,1F,75,0B,86,01,65,49,
13882468,00000523,false,Rx,0,6,02,05,00,04,7A,2B,00,00,
13883486,00000524,false,Rx,0,6,03,05,FF,FF,FF,E0,00,00,
13889084,00000112,false,Rx,0,8,FA,1F,75,0B,86,01,65,49,
13889272,000001A1,false,Rx,0,5,7C,CB,00,00,8A,00,00,00,
13891507,00000521,false,Rx,0,6,00,0E,00,00,02,6E,00,00,
13899084,00000112,false,Rx,0,8,FA,1F,75,0B,86,01,65,49,
13904455,00000522,false,Rx,0,6,01,05,00,04,7A,32,00,00,
13909089,00000112,false,Rx,0,8,FA,1F,76,0B,86,01,65,49,
13909277,000001A1,false,Rx,0,5,7C,CB,00,00,8A,00,00,00,
13910635,00000100,false,Rx,0,8,01,00,00,00,3D,09,39,12,
13910890,00000101,false,Rx,0,8,00,00,00,00,00,00,00,00,
13911377,00000521,false,Rx,0,6,00,0F,00,00,02,3B,00,00,
13917075,0000039D,false,Rx,0,5,24,5B,01,28,00,00,00,00,
13919099,00000112,false,Rx,0,8,FB,1F,76,0B,86,01,65,49,
13929093,00000112,false,Rx,0,8,FB,1F,76,0B,86,01,65,49,
13929344,0000003C,false,Rx,0,8,FF,5F,00,00,00,00,FF,FF,
13929590,0000003F,false,Rx,0,8,00,00,00,C0,00,C0,64,C0,
13929814,0000012F,false,Rx,0,8,F5,28,86,1D,F1,35,30,80,
13929996,000001A1,false,Rx,0,5,7C,CB,00,00,8A,00,00,00,
13930240,000002F1,false,Rx,0,8,36,10,7D,60,09,08,07,A0,
13930485,000003E9,false,Rx,0,8,FE,FF,00,00,00,00,00,00,
13930710,00000431,false,Rx,0,8,CA,FF,0B,02,69,26,F3,4B,
13931456,00000521,false,Rx,0,6,00,00,00,00,02,74,00,00,
13937136,0000035D,false,Rx,0,8,01,00,00,00,00,00,00,00,
13939109,00000112,false,Rx,0,8,FA,1F,76,0B,86,01,65,49,
13942453,00000523,false,Rx,0,6,02,06,00,04,7A,1C,00,00,
13943471,00000524,false,Rx,0,6,03,06,00,00,00,04,00,00,
13949110,00000112,false,Rx,0,8,FA,1F,76,0B,86,01,65,49,
13949298,000001A1,false,Rx,0,5,7C,CB,00,00,8A,00,00,00,
13951492,00000521,false,Rx,0,6,00,01,00,00,02,65,00,00,
13957106,0000039D,false,Rx,0,5,25,5C,01,28,00,00,00,00,
13959112,00000112,false,Rx,0,8,FA,1F,76,0B,86,01,65,49,
13964366,00000522,false,Rx,0,6,01,06,00,04,79,FB,00,00,
13969114,00000112,false,Rx,0,8,FA,1F,75,0B,86,01,65,49,
13969302,000001A1,false,Rx,0,5,7C,CB,00,00,8A,00,00,00,
13971358,00000521,false,Rx,0,6,00,02,00,00,02,84,00,00,
13975568,1801D08F,true,Rx,0,8,00,8C,00,5E,03,00,00,47,
13977174,000003B4,false,Rx,0,8,00,FF,30,F0,B8,FF,00,00,
13979127,00000112,false,Rx,0,8,FA,1F,75,0B,86,01,65,49,
13989129,00000112,false,Rx,0,8,FA,1F,75,0B,86,01,65,49,
13989307,000001A1,false,Rx,0,5,7C,CB,00,00,8A,00,00,00,
13991436,00000521,false,Rx,0,6,00,03,00,00,02,7B,00,00,
13997103,0000039D,false,Rx,0,5,26,5D,01,28,00,00,00,00,
13997343,00000272,false,Rx,0,8,8D,FB,71,11,FF,FF,FF,FF,
13999132,00000112,false,Rx,0,8,FA,1F,75,0B,86,01,65,49,
14002436,00000523,false,Rx,0,6,02,07,00,04,7A,14,00,00,
14003463,00000524,false,Rx,0,6,03,07,FF,FF,FF,E2,00,00,
14009136,00000112,false,Rx,0,8,FA,1F,75,0B,86,01,65,49,
14009313,000001A1,false,Rx,0,5,7C,CB,00,00,8A,00,00,00,
14010630,00000100,false,Rx,0,8,01,00,00,00,3D,09,3F,12,
14010884,00000101,false,Rx,0,8,00,00,00,00,00,00,00,00,
14011487,00000521,false,Rx,0,6,00,04,00,00,02,6A,00,00,
14019139,00000112,false,Rx,0,8,FA,1F,75,0B,86,01,65,49,
14024426,00000522,false,Rx,0,6,01,07,00,04,7A,51,00,00,
14029142,00000112,false,Rx,0,8,FA,1F,76,0B,86,01,65,49,
14029393,0000003C,false,Rx,0,8,FF,5F,00,00,00,00,FF,FF,
14029565,000001A1,false,Rx,0,5,7C,CB,00,00,8A,00,00,00,
14029821,000002FA,false,Rx,0,8,FD,FF,05,FF,FF,FF,FF,FF,
14030044,0000012F,false,Rx,0,8,F5,28,86,1D,F1,35,30,80,
14030278,000002F1,false,Rx,0,8,36,10,7D,60,09,08,07,A0,
14030525,0000003F,false,Rx,0,8,00,00,00,00,00,00,64,65,
14030780,000003E9,false,Rx,0,8,FE,FF,00,00,00,00,00,00,
14031003,00000431,false,Rx,0,8,CA,FF,0B,02,69,26,F3,4B,
14031228,00000432,false,Rx,0,8,2C,E2,10,A3,4E,FF,02,FF,
14031484,00000510,false,Rx,0,8,40,10,20,00,00,00,00,00,
14031728,0000051A,false,Rx,0,8,00,00,00,00,50,00,00,1A,
14031932,00000521,false,Rx,0,6,00,05,00,00,02,5C,00,00,
14032176,00000540,false,Rx,0,8,00,00,00,00,FD,3C,FF,40,
14037086,0000039D,false,Rx,0,5,27,5E,01,28,00,00,00,00,
14039164,00000112,false,Rx,0,8,FA,1F,76,0B,86,01,65,49,
14049160,00000112,false,Rx,0,8,FA,1F,76,0B,86,01,65,49,
14049348,000001A1,false,Rx,0,5,7C,CB,00,00,8A,00,00,00,
14051343,00000521,false,Rx,0,6,00,06,00,00,02,61,00,00,
14059164,00000112,false,Rx,0,8,FA,1F,76,0B,86,01,65,49,
14062424,00000523,false,Rx,0,6,02,08,00,04,7A,35,00,00,
14063453,00000524,false,Rx,0,6,03,08,00,00,00,25,00,00,
14069167,00000112,false,Rx,0,8,FA,1F,76,0B,86,01,65,49,
14069355,000001A1,false,Rx,0,5,7C,CB,00,00,8A,00,00,00,
14071464,00000521,false,Rx,0,6,00,07,00,00,02,6B,00,00,
14075549,1801D08F,true,Rx,0,8,00,8C,00,5E,03,00,00,47,
14077112,0000039D,false,Rx,0,5,28,5F,01,28,00,00,00,00,
14079168,00000112,false,Rx,0,8,FA,1F,76,0B,86,01,65,49,
14084411,00000522,false,Rx,0,6,01,08,00,04,7A,07,00,00,
14089170,00000112,false,Rx,0,8,FA,1F,75,0B,86,01,65,49,
14089358,000001A1,false,Rx,0,5,7C,CB,00,00,8A,00,00,00,
14091414,00000521,false,Rx,0,6,00,08,00,00,02,7A,00,00,
14099183,00000112,false,Rx,0,8,FA,1F,75,0B,86,01,65,49,
14109178,00000112,false,Rx,0,8,FA,1F,75,0B,86,01,65,49,
14109366,000001A1,false,Rx,0,5,7C,CB,00,00,8A,00,00,00,
14110619,00000100,false,Rx,0,8,01,00,00,00,3D,09,39,12,
14110874,00000101,false,Rx,0,8,00,00,00,00,00,00,00,00,
14111328,00000521,false,Rx,0,6,00,09,00,00,02,52,00,00,
14117059,0000039D,false,Rx,0,5,19,50,01,28,00,00,00,00,
14119178,00000112,false,Rx,0,8,FB,1F,75,0B,86,01,65,49,
14122417,00000523,false,Rx,0,6,02,09,00,04,7A,37,00,00,
14123424,00000524,false,Rx,0,6,03,09,00,00,00,0C,00,00,
14129181,00000112,false,Rx,0,8,FB,1F,75,0B,86,01,65,49,
14129433,0000003C,false,Rx,0,8,FF,5F,00,00,00,00,FF,FF,
14129678,0000003F,false,Rx,0,8,00,00,00,40,00,40,64,6B,
14129902,0000012F,false,Rx,0,8,F5,28,86,1D,F1,35,30,80,
14130083,000001A1,false,Rx,0,5,7C,CB,00,00,8A,00,00,00,
14130328,000002F1,false,Rx,0,8,36,10,7D,60,09,08,07,A0,
14130574,000003E9,false,Rx,0,8,FE,FF,00,00,00,00,00,00,
14130797,00000431,false,Rx,0,8,CA,FF,0B,02,69,26,F3,4B,
14131449,00000521,false,Rx,0,6,00,0A,00,00,02,85,00,00,
14139195,00000112,false,Rx,0,8,FA,1F,75,0B,86,01,65,49,
14144389,00000522,false,Rx,0,6,01,09,00,04,7A,2A,00,00,
14149200,00000112,false,Rx,0,8,FA,1F,76,0B,86,01,65,49,
14149388,000001A1,false,Rx,0,5,7C,CB,00,00,8A,00,00,00,
14151318,00000521,false,Rx,0,6,00,0B,00,00,02,51,00,00,
14157080,0000039D,false,Rx,0,5,1A,51,01,28,00,00,00,00,
14159208,00000112,false,Rx,0,8,FB,1F,76,0B,86,01,65,49,
14169204,00000112,false,Rx,0,8,FB,1F,76,0B,86,01,65,49,
14169394,000001A1,false,Rx,0,5,7C,CB,00,00,8A,00,00,00,
14171396,00000521,false,Rx,0,6,00,0C,00,00,02,6A,00,00,
14173684,00000351,false,Rx,0,8,20,0D,C8,00,DC,05,D3,0A,
14173918,00000355,false,Rx,0,8,27,00,64,00,86,01,00,00,
14174164,00000356,false,Rx,0,8,A6,72,FA,FF,E1,00,00,00,
14175554,1801D08F,true,Rx,0,8,00,8C,00,5E,03,00,00,47,
14176049,0000035A,false,Rx,0,8,00,00,00,00,00,00,00,00,
14176274,0000035E,false,Rx,0,8,53,49,4D,50,20,42,4D,53,
14177411,00000337,false,Rx,0,2,FF,FF,00,00,00,00,00,00,
14177687,000003B4,false,Rx,0,8,00,FF,30,F0,B8,FF,00,00,
14178026,00000370,false,Rx,0,8,53,49,4D,50,20,45,43,4F,
14179216,00000112,false,Rx,0,8,FA,1F,76,0B,86,01,65,49,
14180040,00000373,false,Rx,0,8,8F,0D,AA,0D,27,01,28,01,
14182066,00000379,false,Rx,0,8,D2,00,00,00,01,00,00,00,
14182394,00000523,false,Rx,0,6,02,0A,00,04,7A,1E,00,00,
14183424,00000524,false,Rx,0,6,03,0A,00,00,00,04,00,00,
14184068,00000372,false,Rx,0,8,0E,00,00,00,00,00,00,00,
14189213,00000112,false,Rx,0,8,FA,1F,76,0B,86,01,65,49,
14189402,000001A1,false,Rx,0,5,7C,CB,00,00,8A,00,00,00,
14191437,00000521,false,Rx,0,6,00,0D,00,00,02,64,00,00,
14197095,0000039D,false,Rx,0,5,1B,52,01,28,00,00,00,00,
14197744,00000272,false,Rx,0,8,03,FC,71,11,FF,FF,FF,FF,
14199223,00000112,false,Rx,0,8,FA,1F,76,0B,86,01,65,49,
14204384,00000522,false,Rx,0,6,01,0A,00,04,7A,26,00,00,
14207349,000005BD,false,Rx,0,8,90,80,00,00,00,00,00,00,
14209216,00000112,false,Rx,0,8,FA,1F,76,0B,86,01,65,49,
14209405,000001A1,false,Rx,0,5,7C,CB,00,00,8A,00,00,00,
14210615,00000100,false,Rx,0,8,01,00,00,00,3D,09,39,12,
14210871,00000101,false,Rx,0,8,00,00,00,00,00,00,00,00,
14211304,00000521,false,Rx,0,6,00,0E,00,00,02,6E,00,00,
14219226,00000112,false,Rx,0,8,FA,1F,76,0B,86,01,65,49,
14229230,00000112,false,Rx,0,8,FA,1F,76,0B,86,01,65,49,
14229409,000001A1,false,Rx,0,5,7C,CB,00,00,8A,00,00,00,
14229655,000002FA,false,Rx,0,8,FD,FF,05,FF,FF,FF,FF,FF,
14229857,00000328,false,Rx,0,6,0D,00,00,00,87,1E,00,00,
14230113,0000003C,false,Rx,0,8,FF,5F,00,00,00,00,FF,FF,
14230253,000003E8,false,Rx,0,2,F1,FF,00,00,00,00,00,00,
14230498,000003E9,false,Rx,0,8,FE,FF,00,00,00,00,00,00,
14230722,0000012F,false,Rx,0,8,F5,28,86,1D,F1,35,30,80,
14230957,000002F1,false,Rx,0,8,36,10,7D,60,09,08,07,A0,
14231201,0000003F,false,Rx,0,8,00,00,00,80,00,80,64,CE,
14231436,000003F9,false,Rx,0,8,C0,F9,80,E0,43,3C,F3,FF,
14231662,00000431,false,Rx,0,8,CA,FF,0B,02,69,26,F3,4B,
14231896,00000432,false,Rx,0,8,2C,E2,10,A3,4E,FF,02,FF,
14232151,00000510,false,Rx,0,8,40,10,20,00,00,00,00,00,
14232386,0000051A,false,Rx,0,8,00,00,00,00,50,00,00,1A,
14232590,00000521,false,Rx,0,6,00,0F,00,00,02,5D,00,00,
14232844,00000540,false,Rx,0,8,00,00,00,00,FD,3C,FF,40,
14237108,0000039D,false,Rx,0,5,1C,53,01,28,00,00,00,00,
14239260,00000112,false,Rx,0,8,FA,1F,76,0B,86,01,65,49,
14242372,00000523,false,Rx,0,6,02,0B,00,04,7A,1A,00,00,
14243399,00000524,false,Rx,0,6,03,0B,00,00,00,10,00,00,
14249261,00000112,false,Rx,0,8,FA,1F,76,0B,86,01,65,49,
14249438,000001A1,false,Rx,0,5,7C,CB,00,00,8A,00,00,00,
14251421,00000521,false,Rx,0,6,00,00,00,00,02,57,00,00,
14259263,00000112,false,Rx,0,8,FB,1F,76,0B,86,01,65,49,
14264369,00000522,false,Rx,0,6,01,0B,00,04,7A,15,00,00,
14267176,0000035D,false,Rx,0,8,02,00,88,08,00,00,20,F0,
14269264,00000112,false,Rx,0,8,FB,1F,75,0B,86,01,65,49,
14269442,000001A1,false,Rx,0,5,7C,CB,00,00,8A,00,00,00,
14271292,00000521,false,Rx,0,6,00,01,00,00,02,56,00,00,
14275557,1801D08F,true,Rx,0,8,00,8C,00,5E,03,00,00,47,
14277067,0000039D,false,Rx,0,5,1D,54,01,28,00,00,00,00,
14279260,00000112,false,Rx,0,8,FB,1F,75,0B,86,01,65,49,
14289263,00000112,false,Rx,0,8,FB,1F,75,0B,86,01,65,49,
14289451,000001A1,false,Rx,0,5,7C,CB,00,00,8A,00,00,00,
14291371,00000521,false,Rx,0,6,00,02,00,00,02,62,00,00,
14299276,00000112,false,Rx,0,8,FA,1F,75,0B,86,01,65,49,
14302377,00000523,false,Rx,0,6,02,0C,00,04,7A,25,00,00,
14303384,00000524,false,Rx,0,6,03,0C,00,00,00,12,00,00,
14309276,00000112,false,Rx,0,8,FA,1F,75,0B,86,01,65,49,
14309454,000001A1,false,Rx,0,5,7C,CB,00,00,8A,00,00,00,
14310591,00000100,false,Rx,0,8,01,00,00,00,3D,09,3F,12,
14310837,00000101,false,Rx,0,8,00,00,00,00,00,00,00,00,
14311405,00000521,false,Rx,0,6,00,03,00,00,02,76,00,00,
14317062,0000039D,false,Rx,0,5,1E,55,01,28,00,00,00,00,
14319276,00000112,false,Rx,0,8,FA,1F,75,0B,86,01,65,49,
14324352,00000522,false,Rx,0,6,01,0C,00,04,7A,49,00,00,
14329280,00000112,false,Rx,0,8,FA,1F,76,0B,86,01,65,49,
14329532,0000003C,false,Rx,0,8,FF,5F,00,00,00,00,FF,FF,
14329776,0000003F,false,Rx,0,8,00,00,00,C0,00,C0,64,C0,
14330001,0000012F,false,Rx,0,8,F5,28,86,1D,F1,35,30,80,
14330182,000001A1,false,Rx,0,5,7C,CB,00,00,8A,00,00,00,
14330416,000002F1,false,Rx,0,8,36,10,7D,60,09,08,07,A0,
14330662,000003E9,false,Rx,0,8,FE,FF,00,00,00,00,00,00,
14330896,00000431,false,Rx,0,8,CA,FF,0B,02,69,26,F3,4B,
14331358,00000521,false,Rx,0,6,00,04,00,00,02,5B,00,00,
14339295,00000112,false,Rx,0,8,FA,1F,76,0B,86,01,65,49,
14349292,00000112,false,Rx,0,8,FA,1F,76,0B,86,01,65,49,
14349482,000001A1,false,Rx,0,5,7C,CB,00,00,8A,00,00,00,
14351358,00000521,false,Rx,0,6,00,05,00,00,02,6A,00,00,
14357120,0000039D,false,Rx,0,5,1F,56,01,28,00,00,00,00,
14359302,00000112,false,Rx,0,8,FA,1F,76,0B,86,01,65,49,
14362353,00000523,false,Rx,0,6,02,0D,00,04,7A,41,00,00,
14363380,00000524,false,Rx,0,6,03,0D,FF,FF,FF,F8,00,00,
14369305,00000112,false,Rx,0,8,FA,1F,76,0B,86,01,65,49,
14369483,000001A1,false,Rx,0,5,7C,CB,00,00,8A,00,00,00,
14371392,00000521,false,Rx,0,6,00,06,00,00,02,64,00,00,
14375559,1801D08F,true,Rx,0,8,00,8C,00,5E,03,00,00,47,
14378058,000003B4,false,Rx,0,8,00,FF,30,F0,B8,FF,00,00,
14379307,00000112,false,Rx,0,8,FA,1F,76,0B,86,01,65,49,
14384262,00000522,false,Rx,0,6,01,0D,00,04,7A,13,00,00,
14389305,00000112,false,Rx,0,8,FA,1F,75,0B,86,01,65,49,
14389494,000001A1,false,Rx,0,5,7C,CB,00,00,8A,00,00,00,
14391350,00000521,false,Rx,0,6,00,07,00,00,02,58,00,00,
14397079,0000039D,false,Rx,0,5,20,57,01,28,00,00,00,00,
14397886,00000272,false,Rx,0,8,5E,FD,71,11,FF,FF,FF,FF,
14399312,00000112,false,Rx,0,8,FA,1F,75,0B,86,01,65,49,
